UART Data,,
130848,1,01 9D 00 EB 01 47 C9 08 
418304,2,06 03 03 F3 00 0E 35 CE 
919900,3,03 03 08 33 00 16 37 89 
1042344,4,03 03 2C 02 0B 00 00 00 00 00 33 00 6E 00 91 01 A1 00 40 00 81 02 2C 00 00 00 78 00 00 00 00 09 00 00 14 58 21 00 00 00 00 00 02 00 00 00 00 3D 7C 
1444408,5,03 10 07 CF 00 05 0A 00 33 00 03 00 00 00 00 08 50 5C 58 
1481704,6,03 10 07 CF 00 05 30 A3 
1923100,7,04 03 08 33 00 16 36 3E 
2044916,8,04 03 2C 02 0B 00 00 00 00 00 33 00 6E 00 91 01 A1 00 3F 00 7E 02 2A 00 00 00 77 00 00 00 00 09 00 00 14 58 21 00 00 00 00 00 02 00 00 00 00 79 25 
2447584,9,04 10 07 CF 00 05 0A 00 33 00 03 00 00 00 00 08 50 EE 69 
2484772,10,04 10 07 CF 00 05 31 14 
3028252,11,01 03 0B B9 00 15 57 C4 01 03 2A 00 00 00 00 00 00 00 00 00 00 00 00 00 00 00 00 00 00 00 00 00 00 00 00 00 0A 03 06 00 00 00 04 00 19 00 0B 00 1B 00 0D 00 29 F2 F6 
3427872,12,02 03 0B B9 00 15 57 F7 
4306256,13,00 10 07 D1 00 5A B4 57 46 32 33 31 32 32 37 30 37 30 36 00 00 00 00 04 04 07 D1 00 01 00 01 02 26 00 00 00 0A 03 05 00 09 00 09 00 00 00 00 00 00 00 A5 01 F7 02 2D 00 00 01 0B 00 A1 FF E5 00 00 00 00 00 A0 FF E3 00 00 00 00 00 00 00 00 00 00 00 00 00 00 00 00 00 00 00 00 00 AB 00 B1 00 00 00 00 02 C8 02 C3 00 00 00 00 00 00 00 00 00 00 00 00 00 00 00 00 00 00 00 00 02 30 00 00 00 00 00 00 02 28 00 00 00 00 00 00 00 00 00 00 00 00 00 00 00 00 00 00 00 00 00 00 00 EC 00 DE 00 00 00 00 00 00 00 00 00 00 00 00 00 00 00 00 00 00 00 00 00 3C 00 3C 00 00 00 A5 E4 A6 
4807852,14,00 10 08 2B 00 5A B4 57 46 32 33 31 32 32 37 30 37 30 36 00 00 00 00 04 04 08 2B 00 00 00 00 FF E3 FF E4 00 25 00 00 5A A5 00 00 00 00 00 00 00 8B 00 1E 00 89 00 25 00 00 00 00 00 00 00 00 00 00 00 00 00 00 01 F2 00 00 00 00 00 00 00 33 00 33 00 81 00 41 02 2C 02 0B 00 00 00 00 00 33 00 33 00 7E 00 40 02 2A 02 0B 00 00 00 00 01 F4 00 0B 01 9D 01 47 00 00 00 00 00 00 00 00 00 00 00 00 00 7E 00 00 00 10 00 00 00 00 00 00 00 00 00 00 00 00 00 00 00 00 00 00 01 03 00 00 00 00 64 00 00 00 00 00 00 00 00 00 00 00 00 00 00 00 00 00 00 00 00 00 00 00 00 00 00 00 A3 C2 
4932672,15,05 03 03 F3 00 0E 35 FD 
5036032,16,05 03 1C 00 01 01 F4 00 00 00 00 00 10 00 7E 01 F2 00 0B 00 00 00 00 5A A5 01 9D 00 EB 01 48 89 0C 
5444688,17,05 10 03 F3 00 02 04 00 01 01 F9 2D 2C 
5485348,18,05 10 03 F3 00 02 B0 3B 
5935864,19,06 03 03 F3 00 0E 35 CE 
6437464,20,03 03 08 33 00 16 37 89 
6559644,21,03 03 2C 02 0B 00 00 00 00 00 33 00 6E 00 91 01 A1 00 40 00 81 02 2B 00 00 00 78 00 00 00 00 09 00 00 14 58 21 00 00 00 00 00 02 00 00 00 00 97 12 
6961944,22,03 10 07 CF 00 05 0A 00 33 00 03 00 00 00 00 08 50 5C 58 
6999064,23,03 10 07 CF 00 05 30 A3 
7440636,24,04 03 08 33 00 16 36 3E 
7562608,25,04 03 2C 02 0B 00 00 00 00 00 33 00 6E 00 91 01 A0 00 3F 00 7E 02 2A 00 00 00 77 00 00 00 00 09 00 00 14 58 21 00 00 00 00 00 02 00 00 00 00 E8 E5 
7965140,26,04 10 07 CF 00 05 0A 00 33 00 03 00 00 00 00 08 50 EE 69 
8002440,27,04 10 07 CF 00 05 31 14 
8443832,28,01 03 0B B9 00 15 57 C4 
8945432,29,02 03 0B B9 00 15 57 F7 
9823816,30,00 10 07 D1 00 5A B4 57 46 32 33 31 32 32 37 30 37 30 36 00 00 00 00 04 04 07 D1 00 01 00 01 02 26 00 00 00 0A 03 05 00 09 00 09 00 00 00 00 00 00 00 A5 01 F6 02 2D 00 00 01 0B 00 A1 FF E5 00 00 00 00 00 A0 FF E3 00 00 00 00 00 00 00 00 00 00 00 00 00 00 00 00 00 00 00 00 00 AB 00 B1 00 00 00 00 02 C7 02 C3 00 00 00 00 00 00 00 00 00 00 00 00 00 00 00 00 00 00 00 00 02 30 00 00 00 00 00 00 02 28 00 00 00 00 00 00 00 00 00 00 00 00 00 00 00 00 00 00 00 00 00 00 00 EC 00 DE 00 00 00 00 00 00 00 00 00 00 00 00 00 00 00 00 00 00 00 00 00 3C 00 3C 00 00 00 A5 99 E6 
10325388,31,00 10 08 2B 00 5A B4 57 46 32 33 31 32 32 37 30 37 30 36 00 00 00 00 04 04 08 2B 00 00 00 00 FF E3 FF E4 00 25 00 00 5A A5 00 00 00 00 00 00 00 8B 00 1E 00 89 00 25 00 00 00 00 00 00 00 00 00 00 00 00 00 00 01 F2 00 00 00 00 00 00 00 33 00 33 00 81 00 41 02 2B 02 0B 00 00 00 00 00 33 00 33 00 7E 00 40 02 2A 02 0B 00 00 00 00 01 F4 00 0B 01 9D 01 48 00 00 00 00 00 00 00 00 00 00 00 00 00 7E 00 00 00 10 00 00 00 00 00 00 00 00 00 00 00 00 00 00 00 00 00 00 01 03 00 00 00 00 64 00 00 00 00 00 00 00 00 00 00 00 00 00 00 00 00 00 00 00 00 00 00 00 00 00 00 00 39 12 
10450228,32,05 03 03 F3 00 0E 35 FD 
10553384,33,05 03 1C 00 01 01 F9 00 00 00 00 00 10 00 81 01 F8 00 0B 00 00 00 00 5A A5 01 9D 00 EA 01 48 88 9D 
10962200,34,05 10 03 F3 00 02 04 00 01 01 F4 EC E9 
11002912,35,05 10 03 F3 00 02 B0 3B 
11453400,36,06 03 03 F3 00 0E 35 CE 
11955000,37,03 03 08 33 00 16 37 89 
12076996,38,03 03 2C 02 0B 00 00 00 00 00 33 00 6E 00 91 01 A1 00 40 00 81 02 2B 00 00 00 78 00 00 00 00 09 00 00 14 58 21 00 00 00 00 00 02 00 00 00 00 97 12 
12479480,39,03 10 07 CF 00 05 0A 00 33 00 03 00 00 00 00 08 50 5C 58 
12516384,40,03 10 07 CF 00 05 30 A3 
12958196,41,04 03 08 33 00 16 36 3E 
13080248,42,04 03 2C 02 0B 00 00 00 00 00 33 00 6E 00 91 01 A0 00 3F 00 7E 02 2A 00 00 00 77 00 00 00 00 09 00 00 14 58 21 00 00 00 00 00 02 00 00 00 00 E8 E5 
13482676,43,04 10 07 CF 00 05 0A 00 33 00 03 00 00 00 00 08 50 EE 69 
13519008,44,04 10 07 CF 00 05 31 14 
14063324,45,01 03 0B B9 00 15 57 C4 01 03 2A 00 00 00 00 00 00 00 00 00 00 00 00 00 00 00 00 00 00 00 00 00 00 00 00 00 0A 03 06 00 00 00 04 00 19 00 0B 00 1B 00 0D 00 2A B2 F7 
14462968,46,02 03 0B B9 00 15 57 F7 
15341324,47,00 10 07 D1 00 5A B4 57 46 32 33 31 32 32 37 30 37 30 36 00 00 00 00 04 04 07 D1 00 01 00 01 02 26 00 00 00 0A 03 05 00 09 00 09 00 00 00 00 00 00 00 A5 01 F6 02 2D 00 00 01 0B 00 A1 FF E5 00 00 00 00 00 A0 FF E3 00 00 00 00 00 00 00 00 00 00 00 00 00 00 00 00 00 00 00 00 00 AC 00 B1 00 00 00 00 02 C7 02 C2 00 00 00 00 00 00 00 00 00 00 00 00 00 00 00 00 00 00 00 00 02 30 00 00 00 00 00 00 02 28 00 00 00 00 00 00 00 00 00 00 00 00 00 00 00 00 00 00 00 00 00 00 00 EC 00 DE 00 00 00 00 00 00 00 00 00 00 00 00 00 00 00 00 00 00 00 00 00 3C 00 3C 00 00 00 A5 F2 5A 
15842948,48,00 10 08 2B 00 5A B4 57 46 32 33 31 32 32 37 30 37 30 36 00 00 00 00 04 04 08 2B 00 00 00 00 FF E3 FF E4 00 25 00 00 5A A5 00 00 00 00 00 00 00 8B 00 1E 00 88 00 25 00 00 00 00 00 00 00 00 00 00 00 00 00 00 01 F8 00 00 00 00 00 00 00 33 00 33 00 81 00 41 02 2B 02 0B 00 00 00 00 00 33 00 33 00 7E 00 40 02 2A 02 0B 00 00 00 00 01 F4 00 0B 01 9D 01 48 00 00 00 00 00 00 00 00 00 00 00 00 00 81 00 00 00 10 00 00 00 00 00 00 00 00 00 00 00 00 00 00 00 00 00 00 01 03 00 00 00 00 64 00 00 00 00 00 00 00 00 00 00 00 00 00 00 00 00 00 00 00 00 00 00 00 00 00 00 00 EF 03 
15967736,49,05 03 03 F3 00 0E 35 FD 
16070736,50,05 03 1C 00 01 01 F4 00 00 00 00 00 10 00 7E 01 F2 00 0A 00 00 00 00 5A A5 01 9D 00 EB 01 48 8B 8D 
16469336,51,06 03 03 F3 00 0E 35 CE 
16970936,52,03 03 08 33 00 16 37 89 
17093144,53,03 03 2C 02 0B 00 00 00 00 00 33 00 6E 00 91 01 A1 00 40 00 81 02 2C 00 00 00 78 00 00 00 00 09 00 00 14 58 21 00 00 00 00 00 02 00 00 00 00 3D 7C 
17495420,54,03 10 07 CF 00 05 0A 00 33 00 03 00 00 00 00 08 50 5C 58 
17532528,55,03 10 07 CF 00 05 30 A3 
17974132,56,04 03 08 33 00 16 36 3E 
18096368,57,04 03 2C 02 0B 00 00 00 00 00 33 00 6E 00 91 01 A0 00 3F 00 7E 02 2A 00 00 00 77 00 00 00 00 09 00 00 14 58 21 00 00 00 00 00 02 00 00 00 00 E8 E5 
18498612,58,04 10 07 CF 00 05 0A 00 33 00 03 00 00 00 00 08 50 EE 69 
18535156,59,04 10 07 CF 00 05 31 14 
18977304,60,01 03 0B B9 00 15 57 C4 
19129508,61,01 03 2A 00 00 00 00 00 00 00 00 00 00 00 00 00 00 00 00 00 00 00 00 00 00 00 00 00 0A 03 06 00 00 00 04 00 19 00 0B 00 1B 00 0D 00 2A B2 F7 
19478904,62,02 03 0B B9 00 15 57 F7 
20357136,63,00 10 07 D1 00 5A B4 57 46 32 33 31 32 32 37 30 37 30 36 00 00 00 00 04 04 07 D1 00 01 00 01 02 26 00 00 00 0A 03 05 00 09 00 09 00 00 00 00 00 00 00 A5 01 F6 02 2D 00 00 01 0B 00 A1 FF E5 00 00 00 00 00 9F FF E3 00 00 00 00 00 00 00 00 00 00 00 00 00 00 00 00 00 00 00 00 00 AC 00 B1 00 00 00 00 02 C6 02 C2 00 00 00 00 00 00 00 00 00 00 00 00 00 00 00 00 00 00 00 00 02 2F 00 00 00 00 00 00 02 27 00 00 00 00 00 00 00 00 00 00 00 00 00 00 00 00 00 00 00 00 00 00 00 EC 00 DE 00 00 00 00 00 00 00 00 00 00 00 00 00 00 00 00 00 00 00 00 00 3C 00 3B 00 00 00 A5 38 DC 
20858652,64,00 10 08 2B 00 5A B4 57 46 32 33 31 32 32 37 30 37 30 36 00 00 00 00 04 04 08 2B 00 00 00 00 FF E3 FF E4 00 25 00 00 5A A5 00 00 00 00 00 00 00 88 00 1E 00 87 00 25 00 00 00 00 00 00 00 00 00 00 00 00 00 00 01 F2 00 00 00 00 00 00 00 33 00 33 00 81 00 41 02 2C 02 0B 00 00 00 00 00 33 00 33 00 7E 00 40 02 2A 02 0B 00 00 00 00 01 F9 00 0A 01 9D 01 48 00 00 00 00 00 00 00 00 00 00 00 00 00 7E 00 00 00 10 00 00 00 00 00 00 00 00 00 00 00 00 00 00 00 00 00 00 01 03 00 00 00 00 64 00 00 00 00 00 00 00 00 00 00 00 00 00 00 00 00 00 00 00 00 00 00 00 00 00 00 00 6E CB 
20983440,65,05 03 03 F3 00 0E 35 FD 
21086776,66,05 03 1C 00 01 01 F4 00 00 00 00 00 10 00 7E 01 F2 00 0A 00 00 00 00 5A A5 01 9D 00 EB 01 48 8B 8D 
21495360,67,05 10 03 F3 00 02 04 00 01 01 F9 2D 2C 
21536228,68,05 10 03 F3 00 02 B0 3B 
21986480,69,06 03 03 F3 00 0E 35 CE 
22488000,70,03 03 08 33 00 16 37 89 
22609972,71,03 03 2C 02 0B 00 00 00 00 00 33 00 6E 00 91 01 A1 00 40 00 80 02 2B 00 00 00 78 00 00 00 00 09 00 00 14 58 21 00 00 00 00 00 02 00 00 00 00 69 90 
23012404,72,03 10 07 CF 00 05 0A 00 33 00 03 00 00 00 00 08 50 5C 58 
23049312,73,03 10 07 CF 00 05 30 A3 
23491016,74,04 03 08 33 00 16 36 3E 
23613380,75,04 03 2C 02 0B 00 00 00 00 00 33 00 6E 00 91 01 A0 00 3F 00 7E 02 2A 00 00 00 76 00 00 00 00 09 00 00 14 58 21 00 00 00 00 00 02 00 00 00 00 F8 34 
24015420,76,04 10 07 CF 00 05 0A 00 33 00 03 00 00 00 00 08 50 EE 69 
24052092,77,04 10 07 CF 00 05 31 14 
24494056,78,01 03 0B B9 00 15 57 C4 
24995556,79,02 03 0B B9 00 15 57 F7 
25873808,80,00 10 07 D1 00 5A B4 57 46 32 33 31 32 32 37 30 37 30 36 00 00 00 00 04 04 07 D1 00 01 00 01 02 26 00 00 00 0A 03 05 00 09 00 09 00 00 00 00 00 00 00 A5 01 F6 02 2C 00 00 01 0B 00 A1 FF E5 00 00 00 00 00 9F FF E3 00 00 00 00 00 00 00 00 00 00 00 00 00 00 00 00 00 00 00 00 00 AD 00 B2 00 00 00 00 02 C6 02 C2 00 00 00 00 00 00 00 00 00 00 00 00 00 00 00 00 00 00 00 00 02 2F 00 00 00 00 00 00 02 27 00 00 00 00 00 00 00 00 00 00 00 00 00 00 00 00 00 00 00 00 00 00 00 EB 00 DB 00 00 00 00 00 00 00 00 00 00 00 00 00 00 00 00 00 00 00 00 00 3B 00 3B 00 00 00 A5 DA 15 
26375304,81,00 10 08 2B 00 5A B4 57 46 32 33 31 32 32 37 30 37 30 36 00 00 00 00 04 04 08 2B 00 00 00 00 FF E3 FF E4 00 25 00 00 5A A5 00 00 00 00 00 00 00 87 00 21 00 86 00 25 00 00 00 00 00 00 00 00 00 00 00 00 00 00 01 F2 00 00 00 00 00 00 00 33 00 33 00 80 00 41 02 2B 02 0B 00 00 00 00 00 33 00 33 00 7E 00 3F 02 2A 02 0B 00 00 00 00 01 F9 00 0A 01 9D 01 48 00 00 00 00 00 00 00 00 00 00 00 00 00 7E 00 00 00 10 00 00 00 00 00 00 00 00 00 00 00 00 00 00 00 00 00 00 01 03 00 00 00 00 64 00 00 00 00 00 00 00 00 00 00 00 00 00 00 00 00 00 00 00 00 00 00 00 00 00 00 00 3C AF 
26500120,82,05 03 03 F3 00 0E 35 FD 
26603244,83,05 03 1C 00 01 01 F9 00 00 00 00 00 10 00 82 01 F8 00 0B 00 00 00 00 5A A5 01 9D 00 EB 01 48 29 AD 
27001636,84,06 03 03 F3 00 0E 35 CE 
27503132,85,03 03 08 33 00 16 37 89 
27625312,86,03 03 2C 02 0B 00 00 00 00 00 33 00 6E 00 91 01 A1 00 40 00 80 02 2C 00 00 00 78 00 00 00 00 09 00 00 14 58 21 00 00 00 00 00 02 00 00 00 00 C3 FE 
28027536,87,03 10 07 CF 00 05 0A 00 33 00 03 00 00 00 00 08 50 5C 58 
28064620,88,03 10 07 CF 00 05 30 A3 
28506144,89,04 03 08 33 00 16 36 3E 
28627624,90,04 03 2C 02 0B 00 00 00 00 00 33 00 6E 00 91 01 A0 00 3F 00 7E 02 2A 00 00 00 76 00 00 00 00 09 00 00 14 58 21 00 00 00 00 00 02 00 00 00 00 F8 34 
29030552,91,04 10 07 CF 00 05 0A 00 33 00 03 00 00 00 00 08 50 EE 69 
29067428,92,04 10 07 CF 00 05 31 14 
29509188,93,01 03 0B B9 00 15 57 C4 
30010680,94,02 03 0B B9 00 15 57 F7 
30888912,95,00 10 07 D1 00 5A B4 57 46 32 33 31 32 32 37 30 37 30 36 00 00 00 00 04 04 07 D1 00 01 00 01 02 26 00 00 00 0A 03 05 00 09 00 09 00 00 00 00 00 00 00 A5 01 F6 02 2C 00 00 01 0B 00 9F FF E5 00 00 00 00 00 9F FF E3 00 00 00 00 00 00 00 00 00 00 00 00 00 00 00 00 00 00 00 00 00 AE 00 B2 00 00 00 00 02 C5 02 C1 00 00 00 00 00 00 00 00 00 00 00 00 00 00 00 00 00 00 00 00 02 2F 00 00 00 00 00 00 02 27 00 00 00 00 00 00 00 00 00 00 00 00 00 00 00 00 00 00 00 00 00 00 00 EB 00 DB 00 00 00 00 00 00 00 00 00 00 00 00 00 00 00 00 00 00 00 00 00 3B 00 3B 00 00 00 A5 D8 3D 
31390404,96,00 10 08 2B 00 5A B4 57 46 32 33 31 32 32 37 30 37 30 36 00 00 00 00 04 04 08 2B 00 00 00 00 FF E3 FF E4 00 25 00 00 5A A5 00 00 00 00 00 00 00 86 00 21 00 86 00 25 00 00 00 00 00 00 00 00 00 00 00 00 00 00 01 F8 00 00 00 00 00 00 00 33 00 33 00 80 00 41 02 2C 02 0B 00 00 00 00 00 33 00 33 00 7E 00 3F 02 2A 02 0B 00 00 00 00 01 F9 00 0B 01 9D 01 48 00 00 00 00 00 00 00 00 00 00 00 00 00 82 00 00 00 10 00 00 00 00 00 00 00 00 00 00 00 00 00 00 00 00 00 00 01 03 00 00 00 00 64 00 00 00 00 00 00 00 00 00 00 00 00 00 00 00 00 00 00 00 00 00 00 00 00 00 00 00 7C 65 
31515220,97,05 03 03 F3 00 0E 35 FD 
31618296,98,05 03 1C 00 01 01 F9 00 00 00 00 00 10 00 82 01 F8 00 0B 00 00 00 00 5A A5 01 9D 00 EB 01 47 69 A9 
32016712,99,06 03 03 F3 00 0E 35 CE 
32518232,100,03 03 08 33 00 16 37 89 
32640596,101,03 03 2C 02 0B 00 00 00 00 00 33 00 6E 00 91 01 A1 00 40 00 80 02 2C 00 00 00 78 00 00 00 00 09 00 00 14 58 21 00 00 00 00 00 02 00 00 00 00 C3 FE 
33042636,102,03 10 07 CF 00 05 0A 00 33 00 03 00 00 00 00 08 50 5C 58 
33079880,103,03 10 07 CF 00 05 30 A3 
33521220,104,04 03 08 33 00 16 36 3E 
33642908,105,04 03 2C 02 0B 00 00 00 00 00 33 00 6E 00 91 01 A0 00 3F 00 7E 02 2A 00 00 00 76 00 00 00 00 09 00 00 14 58 21 00 00 00 00 00 02 00 00 00 00 F8 34 
34045624,106,04 10 07 CF 00 05 0A 00 33 00 03 00 00 00 00 08 50 EE 69 
34082688,107,04 10 07 CF 00 05 31 14 
34626272,108,01 03 0B B9 00 15 57 C4 01 03 2A 00 00 00 00 00 00 00 00 00 00 00 00 00 00 00 00 00 00 00 00 00 00 00 00 00 0A 03 06 00 00 00 04 00 19 00 0B 00 1B 00 0D 00 2A B2 F7 
37968488,110,00 10 07 D1 00 5A B4 57 46 32 33 31 32 32 37 30 37 30 36 00 00 00 00 04 04 07 D1 00 01 00 01 02 26 00 00 00 0A 03 05 00 09 00 09 00 00 00 00 00 00 00 A5 01 F5 02 2C 00 00 01 0B 00 9F FF E5 
38156776,112,03 03 2C 02 0B 00 00 00 00 00 33 00 6E 00 91 01 A2 00 40 00 80 02 2C 00 00 00 78 00 00 00 00 09 00 00 14 58 21 00 00 00 00 00 02 00 00 00 00 73 FF 
38559024,113,03 10 07 CF 00 05 0A 00 33 00 03 00 00 00 00 08 50 5C 58 
38596088,114,03 10 07 CF 00 05 30 A3 
39037612,115,04 03 08 33 00 16 36 3E 
39159428,116,04 03 2C 02 0B 00 00 00 00 00 33 00 6E 00 91 01 A1 00 3F 00 7E 02 2A 00 00 00 76 00 00 00 00 09 00 00 14 58 21 00 00 00 00 00 02 00 00 00 00 69 F4 
39562016,117,04 10 07 CF 00 05 0A 00 33 00 03 00 00 00 00 08 50 EE 69 
39599128,118,04 10 07 CF 00 05 31 14 
40142584,119,01 03 0B B9 00 15 57 C4 01 03 2A 00 00 00 00 00 00 00 00 00 00 00 00 00 00 00 00 00 00 00 00 00 00 00 00 00 0A 03 06 00 00 00 04 00 19 00 0B 00 1B 00 0D 00 2A B2 F7 
40542096,120,02 03 0B B9 00 15 57 F7 
41420268,121,00 10 07 D1 00 5A B4 57 46 32 33 31 32 32 37 30 37 30 36 00 00 00 00 04 04 07 D1 00 01 00 01 02 26 00 00 00 0A 03 05 00 09 00 09 00 00 00 00 00 00 00 A5 01 F5 02 2C 00 00 01 0A 00 9E FF E5 00 00 00 00 00 9E FF E3 00 00 00 00 00 00 00 00 00 00 00 00 00 00 00 00 00 00 00 00 00 AE 00 B2 00 00 00 00 02 C4 02 C1 00 00 00 00 00 00 00 00 00 00 00 00 00 00 00 00 00 00 00 00 02 2E 00 00 00 00 00 00 02 26 00 00 00 00 00 00 00 00 00 00 00 00 00 00 00 00 00 00 00 00 00 00 00 EB 00 DB 00 00 00 00 00 00 00 00 00 00 00 00 00 00 00 00 00 00 00 00 00 3B 00 3B 00 00 00 A5 D6 E1 
41921792,122,00 10 08 2B 00 5A B4 57 46 32 33 31 32 32 37 30 37 30 36 00 00 00 00 04 04 08 2B 00 00 00 00 FF E3 FF E4 00 25 00 00 5A A5 00 00 00 00 00 00 00 86 00 21 00 85 00 25 00 00 00 00 00 00 00 00 00 00 00 00 00 00 01 F8 00 00 00 00 00 00 00 33 00 33 00 80 00 41 02 2C 02 0B 00 00 00 00 00 33 00 33 00 7E 00 3F 02 2A 02 0B 00 00 00 00 01 FE 00 0B 01 9D 01 48 00 00 00 00 00 00 00 00 00 00 00 00 00 82 00 00 00 10 00 00 00 00 00 00 00 00 00 00 00 00 00 00 00 00 00 00 01 03 00 00 00 00 64 00 00 00 00 00 00 00 00 00 00 00 00 00 00 00 00 00 00 00 00 00 00 00 00 00 00 00 AE C7 
42046580,123,05 03 03 F3 00 0E 35 FD 
42149812,124,05 03 1C 00 01 01 FE 00 00 00 00 00 10 00 86 01 FE 00 0B 00 00 00 00 5A A5 01 9D 00 EB 01 48 47 00 
42548072,125,06 03 03 F3 00 0E 35 CE 
43049568,126,03 03 08 33 00 16 37 89 
43171932,127,03 03 2C 02 0B 00 00 00 00 00 33 00 6E 00 91 01 A1 00 40 00 80 02 2C 00 00 00 78 00 00 00 00 09 00 00 14 58 21 00 00 00 00 00 02 00 00 00 00 C3 FE 
43573948,128,03 10 07 CF 00 05 0A 00 33 00 03 00 00 00 00 08 50 5C 58 
43611216,129,03 10 07 CF 00 05 30 A3 
44052560,130,04 03 08 33 00 16 36 3E 
44174688,131,04 03 2C 02 0B 00 00 00 00 00 33 00 6E 00 91 01 A0 00 3F 00 7E 02 2A 00 00 00 76 00 00 00 00 09 00 00 14 58 21 00 00 00 00 00 02 00 00 00 00 F8 34 
44576960,132,04 10 07 CF 00 05 0A 00 33 00 03 00 00 00 00 08 50 EE 69 
44613212,133,04 10 07 CF 00 05 31 14 
45157528,134,01 03 0B B9 00 15 57 C4 01 03 2A 00 00 00 00 00 00 00 00 00 00 00 00 00 00 00 00 00 00 00 00 00 00 00 00 00 0A 03 06 00 00 00 04 00 19 00 0B 00 1B 00 0D 00 2A B2 F7 
45557044,135,02 03 0B B9 00 15 57 F7 
46435244,136,00 10 07 D1 00 5A B4 57 46 32 33 31 32 32 37 30 37 30 36 00 00 00 00 04 04 07 D1 00 01 00 01 02 26 00 00 00 0A 03 05 00 09 00 09 00 00 00 00 00 00 00 A5 01 F5 02 2C 00 00 01 0A 00 9E FF E5 00 00 00 00 00 9E FF E3 00 00 00 00 00 00 00 00 00 00 00 00 00 00 00 00 00 00 00 00 00 AD 00 B2 00 00 00 00 02 C4 02 C0 00 00 00 00 00 00 00 00 00 00 00 00 00 00 00 00 00 00 00 00 02 2E 00 00 00 00 00 00 02 26 00 00 00 00 00 00 00 00 00 00 00 00 00 00 00 00 00 00 00 00 00 00 00 EB 00 D8 00 00 00 00 00 00 00 00 00 00 00 00 00 00 00 00 00 00 00 00 00 3B 00 3B 00 00 00 A5 6F 6F 
46936736,137,00 10 08 2B 00 5A B4 57 46 32 33 31 32 32 37 30 37 30 36 00 00 00 00 04 04 08 2B 00 00 00 00 FF E3 FF E4 00 25 00 00 5A A5 00 00 00 00 00 00 00 87 00 21 00 86 00 25 00 00 00 00 00 00 00 00 00 00 00 00 00 00 01 FE 00 00 00 00 00 00 00 33 00 33 00 80 00 41 02 2C 02 0B 00 00 00 00 00 33 00 33 00 7E 00 3F 02 2A 02 0B 00 00 00 00 01 FE 00 0B 01 9D 01 48 00 00 00 00 00 00 00 00 00 00 00 00 00 86 00 00 00 10 00 00 00 00 00 00 00 00 00 00 00 00 00 00 00 00 00 00 01 03 00 00 00 00 64 00 00 00 00 00 00 00 00 00 00 00 00 00 00 00 00 00 00 00 00 00 00 00 00 00 00 00 0D 19 
47061552,138,05 03 03 F3 00 0E 35 FD 
47164496,139,05 03 1C 00 01 01 FE 00 00 00 00 00 10 00 86 01 FE 00 0B 00 00 00 00 5A A5 01 9D 00 EA 01 48 16 C0 
47563044,140,06 03 03 F3 00 0E 35 CE 
48064540,141,03 03 08 33 00 16 37 89 
48187060,142,03 03 2C 02 0B 00 00 00 00 00 33 00 6E 00 91 01 A2 00 40 00 80 02 2C 00 00 00 78 00 00 00 00 09 00 00 14 58 21 00 00 00 00 00 02 00 00 00 00 73 FF 
48588928,143,03 10 07 CF 00 05 0A 00 33 00 03 00 00 00 00 08 50 5C 58 
48625352,144,03 10 07 CF 00 05 30 A3 
49067528,145,04 03 08 33 00 16 36 3E 
49189684,146,04 03 2C 02 0B 00 00 00 00 00 33 00 6E 00 91 01 A1 00 3F 00 7E 02 2A 00 00 00 76 00 00 00 00 09 00 00 14 58 21 00 00 00 00 00 02 00 00 00 00 69 F4 
49591932,147,04 10 07 CF 00 05 0A 00 33 00 03 00 00 00 00 08 50 EE 69 
49628392,148,04 10 07 CF 00 05 31 14 
50172424,149,01 03 0B B9 00 15 57 C4 01 03 2A 00 00 00 00 00 00 00 00 00 00 00 00 00 00 00 00 00 00 00 00 00 00 00 00 00 0A 03 06 00 00 00 04 00 19 00 0B 00 1B 00 0D 00 2A B2 F7 
50572040,150,02 03 0B B9 00 15 57 F7 
51450240,151,00 10 07 D1 00 5A B4 57 46 32 33 31 32 32 37 30 37 30 36 00 00 00 00 04 04 07 D1 00 01 00 01 02 26 00 00 00 0A 03 05 00 09 00 09 00 00 00 00 00 00 00 A5 01 F5 02 2B 00 00 01 0A 00 9E FF E5 00 00 00 00 00 9E FF E3 00 00 00 00 00 00 00 00 00 00 00 00 00 00 00 00 00 00 00 00 00 AC 00 B1 00 00 00 00 02 C3 02 C0 00 00 00 00 00 00 00 00 00 00 00 00 00 00 00 00 00 00 00 00 02 2E 00 00 00 00 00 00 02 26 00 00 00 00 00 00 00 00 00 00 00 00 00 00 00 00 00 00 00 00 00 00 00 EB 00 D8 00 00 00 00 00 00 00 00 00 00 00 00 00 00 00 00 00 00 00 00 00 3C 00 3B 00 00 00 A5 DC 8C 
51951760,152,00 10 08 2B 00 5A B4 57 46 32 33 31 32 32 37 30 37 30 36 00 00 00 00 04 04 08 2B 00 00 00 00 FF E3 FF E4 00 25 00 00 5A A5 00 00 00 00 00 00 00 8B 00 21 00 88 00 25 00 00 00 00 00 00 00 00 00 00 00 00 00 00 01 FE 00 00 00 00 00 00 00 33 00 33 00 80 00 41 02 2C 02 0B 00 00 00 00 00 33 00 33 00 7E 00 3F 02 2A 02 0B 00 00 00 00 01 FE 00 0B 01 9D 01 48 00 00 00 00 00 00 00 00 00 00 00 00 00 86 00 00 00 10 00 00 00 00 00 00 00 00 00 00 00 00 00 00 00 00 00 00 01 03 00 00 00 00 64 00 00 00 00 00 00 00 00 00 00 00 00 00 00 00 00 00 00 00 00 00 00 00 00 00 00 00 5C 7C 
52076548,153,05 03 03 F3 00 0E 35 FD 
52179860,154,05 03 1C 00 01 01 FE 00 00 00 00 00 10 00 86 01 FE 00 0B 00 00 00 00 5A A5 01 9D 00 EB 01 48 47 00 
52578044,155,06 03 03 F3 00 0E 35 CE 
53079564,156,03 03 08 33 00 16 37 89 
53201248,157,03 03 2C 02 0B 00 00 00 00 00 33 00 6E 00 91 01 A2 00 40 00 80 02 2C 00 00 00 78 00 00 00 00 09 00 00 14 58 21 00 00 00 00 00 02 00 00 00 00 73 FF 
53603944,158,03 10 07 CF 00 05 0A 00 33 00 03 00 00 00 00 08 50 5C 58 
53640560,159,03 10 07 CF 00 05 30 A3 
54082552,160,04 03 08 33 00 16 36 3E 
54204892,161,04 03 2C 02 0B 00 00 00 00 00 33 00 6E 00 91 01 A0 00 3F 00 7E 02 2A 00 00 00 76 00 00 00 00 09 00 00 14 58 21 00 00 00 00 00 02 00 00 00 00 F8 34 
54606960,162,04 10 07 CF 00 05 0A 00 33 00 03 00 00 00 00 08 50 EE 69 
54643600,163,04 10 07 CF 00 05 31 14 
55085568,164,01 03 0B B9 00 15 57 C4 
55587064,165,02 03 0B B9 00 15 57 F7 
56465264,166,00 10 07 D1 00 5A B4 57 46 32 33 31 32 32 37 30 37 30 36 00 00 00 00 04 04 07 D1 00 01 00 01 02 26 00 00 00 0A 03 05 00 09 00 09 00 00 00 00 00 00 00 A5 01 F5 02 2B 00 00 01 0A 00 9E FF E5 00 00 00 00 00 9E FF E3 00 00 00 00 00 00 00 00 00 00 00 00 00 00 00 00 00 00 00 00 00 AB 00 B1 00 00 00 00 02 C3 02 C0 00 00 00 00 00 00 00 00 00 00 00 00 00 00 00 00 00 00 00 00 02 2E 00 00 00 00 00 00 02 26 00 00 00 00 00 00 00 00 00 00 00 00 00 00 00 00 00 00 00 00 00 00 00 EA 00 D8 00 00 00 00 00 00 00 00 00 00 00 00 00 00 00 00 00 00 00 00 00 3C 00 3C 00 00 00 A5 06 08 
56966788,167,00 10 08 2B 00 5A B4 57 46 32 33 31 32 32 37 30 37 30 36 00 00 00 00 04 04 08 2B 00 00 00 00 FF E3 FF E4 00 25 00 00 5A A5 00 00 00 00 00 00 00 8C 00 24 00 8A 00 25 00 00 00 00 00 00 00 00 00 00 00 00 00 00 01 FE 00 00 00 00 00 00 00 33 00 33 00 80 00 41 02 2C 02 0B 00 00 00 00 00 33 00 33 00 7E 00 3F 02 2A 02 0B 00 00 00 00 01 FE 00 0B 01 9D 01 48 00 00 00 00 00 00 00 00 00 00 00 00 00 86 00 00 00 10 00 00 00 00 00 00 00 00 00 00 00 00 00 00 00 00 00 00 01 03 00 00 00 00 64 00 00 00 00 00 00 00 00 00 00 00 00 00 00 00 00 00 00 00 00 00 00 00 00 00 00 00 1F B1 
57091572,168,05 03 03 F3 00 0E 35 FD 
57194808,169,05 03 1C 00 01 01 FE 00 00 00 00 00 10 00 86 01 FE 00 0B 00 00 00 00 5A A5 01 9D 00 EA 01 48 16 C0 
57593068,170,06 03 03 F3 00 0E 35 CE 
58094592,171,03 03 08 33 00 16 37 89 
58216464,172,03 03 2C 02 0B 00 00 00 00 00 33 00 6E 00 91 01 A1 00 40 00 80 02 2B 00 00 00 78 00 00 00 00 09 00 00 14 58 21 00 00 00 00 00 02 00 00 00 00 69 90 
58618968,173,03 10 07 CF 00 05 0A 00 33 00 03 00 00 00 00 08 50 5C 58 
58655768,174,03 10 07 CF 00 05 30 A3 
59097580,175,04 03 08 33 00 16 36 3E 
59219264,176,04 03 2C 02 0B 00 00 00 00 00 33 00 6E 00 91 01 A1 00 3F 00 7E 02 2A 00 00 00 76 00 00 00 00 09 00 00 14 58 21 00 00 00 00 00 02 00 00 00 00 69 F4 
59621980,177,04 10 07 CF 00 05 0A 00 33 00 03 00 00 00 00 08 50 EE 69 
59658860,178,04 10 07 CF 00 05 31 14 
60202420,179,01 03 0B B9 00 15 57 C4 01 03 2A 00 00 00 00 00 00 00 00 00 00 00 00 00 00 00 00 00 00 00 00 00 00 00 00 00 0A 03 06 00 00 00 04 00 19 00 0B 00 1B 00 0D 00 2A B2 F7 
60602088,180,02 03 0B B9 00 15 57 F7 
61480288,181,00 10 07 D1 00 5A B4 57 46 32 33 31 32 32 37 30 37 30 36 00 00 00 00 04 04 07 D1 00 01 00 01 02 26 00 00 00 0A 03 05 00 09 00 09 00 00 00 00 00 00 00 A5 01 F4 02 2C 00 00 01 0A 00 9F FF E5 00 00 00 00 00 9E FF E3 00 00 00 00 00 00 00 00 00 00 00 00 00 00 00 00 00 00 00 00 00 AB 00 B1 00 00 00 00 02 C3 02 C0 00 00 00 00 00 00 00 00 00 00 00 00 00 00 00 00 00 00 00 00 02 2E 00 00 00 00 00 00 02 26 00 00 00 00 00 00 00 00 00 00 00 00 00 00 00 00 00 00 00 00 00 00 00 EA 00 D5 00 00 00 00 00 00 00 00 00 00 00 00 00 00 00 00 00 00 00 00 00 3D 00 3C 00 00 00 A5 77 AC 
61981812,182,00 10 08 2B 00 5A B4 57 46 32 33 31 32 32 37 30 37 30 36 00 00 00 00 04 04 08 2B 00 00 00 00 FF E3 FF E4 00 25 00 00 5A A5 00 00 00 00 00 00 00 8D 00 24 00 8A 00 25 00 00 00 00 00 00 00 00 00 00 00 00 00 00 01 FE 00 00 00 00 00 00 00 33 00 33 00 80 00 41 02 2B 02 0B 00 00 00 00 00 33 00 33 00 7E 00 3F 02 2A 02 0B 00 00 00 00 01 FE 00 0B 01 9D 01 48 00 00 00 00 00 00 00 00 00 00 00 00 00 86 00 00 00 10 00 00 00 00 00 00 00 00 00 00 00 00 00 00 00 00 00 00 01 03 00 00 00 00 64 00 00 00 00 00 00 00 00 00 00 00 00 00 00 00 00 00 00 00 00 00 00 00 00 00 00 00 38 CF 
62106596,183,05 03 03 F3 00 0E 35 FD 
62209780,184,05 03 1C 00 01 01 FE 00 00 00 00 00 10 00 86 01 FE 00 0B 00 00 00 00 5A A5 01 9D 00 EA 01 48 16 C0 
62608092,185,06 03 03 F3 00 0E 35 CE 
63109616,186,03 03 08 33 00 16 37 89 
63231636,187,03 03 2C 02 0B 00 00 00 00 00 33 00 6E 00 91 01 A2 00 40 00 80 02 2B 00 00 00 78 00 00 00 00 09 00 00 14 58 21 00 00 00 00 00 02 00 00 00 00 D9 91 
63633992,188,03 10 07 CF 00 05 0A 00 33 00 03 00 00 00 00 08 50 5C 58 
63670948,189,03 10 07 CF 00 05 30 A3 
64112604,190,04 03 08 33 00 16 36 3E 
64234288,191,04 03 2C 02 0B 00 00 00 00 00 33 00 6E 00 91 01 A1 00 3F 00 7E 02 2A 00 00 00 76 00 00 00 00 09 00 00 14 58 21 00 00 00 00 00 02 00 00 00 00 69 F4 
64637004,192,04 10 07 CF 00 05 0A 00 33 00 03 00 00 00 00 08 50 EE 69 
64674068,193,04 10 07 CF 00 05 31 14 
65217468,194,01 03 0B B9 00 15 57 C4 01 03 2A 00 00 00 00 00 00 00 00 00 00 00 00 00 00 00 00 00 00 00 00 00 00 00 00 00 0A 03 06 00 00 00 04 00 19 00 0B 00 1B 00 0D 00 2A B2 F7 
65617112,195,02 03 0B B9 00 15 57 F7 
66495316,196,00 10 07 D1 00 5A B4 57 46 32 33 31 32 32 37 30 37 30 36 00 00 00 00 04 04 07 D1 00 01 00 01 02 26 00 00 00 0A 03 05 00 09 00 09 00 00 00 00 00 00 00 A5 01 F5 02 2C 00 00 01 0B 00 A0 FF E5 00 00 00 00 00 9F FF E3 00 00 00 00 00 00 00 00 00 00 00 00 00 00 00 00 00 00 00 00 00 AA 00 B1 00 00 00 00 02 C2 02 C0 00 00 00 00 00 00 00 00 00 00 00 00 00 00 00 00 00 00 00 00 02 2E 00 00 00 00 00 00 02 26 00 00 00 00 00 00 00 00 00 00 00 00 00 00 00 00 00 00 00 00 00 00 00 EA 00 D5 00 00 00 00 00 00 00 00 00 00 00 00 00 00 00 00 00 00 00 00 00 3C 00 3C 00 00 00 A5 DD CC 
66996836,197,00 10 08 2B 00 5A B4 57 46 32 33 31 32 32 37 30 37 30 36 00 00 00 00 04 04 08 2B 00 00 00 00 FF E3 FF E4 00 25 00 00 5A A5 00 00 00 00 00 00 00 8C 00 24 00 89 00 25 00 00 00 00 00 00 00 00 00 00 00 00 00 00 01 FE 00 00 00 00 00 00 00 33 00 33 00 80 00 41 02 2B 02 0B 00 00 00 00 00 33 00 33 00 7E 00 3F 02 2A 02 0B 00 00 00 00 01 F9 00 0B 01 9D 01 48 00 00 00 00 00 00 00 00 00 00 00 00 00 86 00 00 00 10 00 00 00 00 00 00 00 00 00 00 00 00 00 00 00 00 00 00 01 03 00 00 00 00 64 00 00 00 00 00 00 00 00 00 00 00 00 00 00 00 00 00 00 00 00 00 00 00 00 00 00 00 28 D3 
67121624,198,05 03 03 F3 00 0E 35 FD 
67224516,199,05 03 1C 00 01 01 FE 00 00 00 00 00 10 00 86 01 FE 00 0B 00 00 00 00 5A A5 01 9D 00 EA 01 48 16 C0 
67633544,200,05 10 03 F3 00 02 04 00 01 01 F9 2D 2C 
67673756,201,05 10 03 F3 00 02 B0 3B 
68124636,202,06 03 03 F3 00 0E 35 CE 
68626132,203,03 03 08 33 00 16 37 89 
68747976,204,03 03 2C 02 0B 00 00 00 00 00 33 00 6E 00 91 01 A1 00 40 00 80 02 2B 00 00 00 78 00 00 00 00 09 00 00 14 58 21 00 00 00 00 00 02 00 00 00 00 69 90 
69150536,205,03 10 07 CF 00 05 0A 00 33 00 03 00 00 00 00 08 50 5C 58 
69187284,206,03 10 07 CF 00 05 30 A3 
69629148,207,04 03 08 33 00 16 36 3E 
69750936,208,04 03 2C 02 0B 00 00 00 00 00 33 00 6E 00 91 01 A1 00 3F 00 7E 02 2A 00 00 00 76 00 00 00 00 09 00 00 14 58 21 00 00 00 00 00 02 00 00 00 00 69 F4 
70153552,209,04 10 07 CF 00 05 0A 00 33 00 03 00 00 00 00 08 50 EE 69 
70190716,210,04 10 07 CF 00 05 31 14 
70734200,211,01 03 0B B9 00 15 57 C4 01 03 2A 00 00 00 00 00 00 00 00 00 00 00 00 00 00 00 00 00 00 00 00 00 00 00 00 00 0A 03 06 00 00 00 04 00 19 00 0B 00 1B 00 0D 00 2A B2 F7 
71133656,212,02 03 0B B9 00 15 57 F7 
72011864,213,00 10 07 D1 00 5A B4 57 46 32 33 31 32 32 37 30 37 30 36 00 00 00 00 04 04 07 D1 00 01 00 01 02 26 00 00 00 0A 03 05 00 09 00 09 00 00 00 00 00 00 00 A5 01 F4 02 2B 00 00 01 0B 00 A0 FF E5 00 00 00 00 00 9F FF E3 00 00 00 00 00 00 00 00 00 00 00 00 00 00 00 00 00 00 00 00 00 AB 00 B2 00 00 00 00 02 C2 02 BF 00 00 00 00 00 00 00 00 00 00 00 00 00 00 00 00 00 00 00 00 02 2E 00 00 00 00 00 00 02 26 00 00 00 00 00 00 00 00 00 00 00 00 00 00 00 00 00 00 00 00 00 00 00 EA 00 D5 00 00 00 00 00 00 00 00 00 00 00 00 00 00 00 00 00 00 00 00 00 3C 00 3C 00 00 00 A5 F2 6D 
72513380,214,00 10 08 2B 00 5A B4 57 46 32 33 31 32 32 37 30 37 30 36 00 00 00 00 04 04 08 2B 00 00 00 00 FF E3 FF E4 00 25 00 00 5A A5 00 00 00 00 00 00 00 8B 00 24 00 87 00 25 00 00 00 00 00 00 00 00 00 00 00 00 00 00 01 FE 00 00 00 00 00 00 00 33 00 33 00 80 00 41 02 2B 02 0B 00 00 00 00 00 33 00 33 00 7E 00 3F 02 2A 02 0B 00 00 00 00 01 F9 00 0B 01 9D 01 48 00 00 00 00 00 00 00 00 00 00 00 00 00 86 00 00 00 10 00 00 00 00 00 00 00 00 00 00 00 00 00 00 00 00 00 00 01 03 00 00 00 00 64 00 00 00 00 00 00 00 00 00 00 00 00 00 00 00 00 00 00 00 00 00 00 00 00 00 00 00 20 C3 
72638168,215,05 03 03 F3 00 0E 35 FD 
72741504,216,05 03 1C 00 01 01 F9 00 00 00 00 00 10 00 82 01 F8 00 0B 00 00 00 00 5A A5 01 9F 00 EA 01 48 01 AD 
73139688,217,06 03 03 F3 00 0E 35 CE 
73641184,218,03 03 08 33 00 16 37 89 
73763236,219,03 03 2C 02 0B 00 00 00 00 00 33 00 6E 00 91 01 A1 00 40 00 80 02 2C 00 00 00 78 00 00 00 00 09 00 00 14 58 21 00 00 00 00 00 02 00 00 00 00 C3 FE 
74165588,220,03 10 07 CF 00 05 0A 00 33 00 03 00 00 00 00 08 50 5C 58 
74202568,221,03 10 07 CF 00 05 30 A3 
74644196,222,04 03 08 33 00 16 36 3E 
74766144,223,04 03 2C 02 0B 00 00 00 00 00 33 00 6E 00 91 01 A1 00 3F 00 7D 02 2A 00 00 00 76 00 00 00 00 09 00 00 14 58 21 00 00 00 00 00 02 00 00 00 00 68 33 
75168576,224,04 10 07 CF 00 05 0A 00 33 00 03 00 00 00 00 08 50 EE 69 
75204908,225,04 10 07 CF 00 05 31 14 
75749040,226,01 03 0B B9 00 15 57 C4 01 03 2A 00 00 00 00 00 00 00 00 00 00 00 00 00 00 00 00 00 00 00 00 00 00 00 00 00 0A 03 06 00 00 00 04 00 19 00 0B 00 1B 00 0D 00 2B 73 37 
76148684,227,02 03 0B B9 00 15 57 F7 
77026912,228,00 10 07 D1 00 5A B4 57 46 32 33 31 32 32 37 30 37 30 36 00 00 00 00 04 04 07 D1 00 01 00 01 02 26 00 00 00 0A 03 05 00 09 00 09 00 00 00 00 00 00 00 A5 01 F4 02 2B 00 00 01 0C 00 A0 FF E5 00 00 00 00 00 9F FF E3 00 00 00 00 00 00 00 00 00 00 00 00 00 00 00 00 00 00 00 00 00 AC 00 B3 00 00 00 00 02 C2 02 BF 00 00 00 00 00 00 00 00 00 00 00 00 00 00 00 00 00 00 00 00 02 2E 00 00 00 00 00 00 02 26 00 00 00 00 00 00 00 00 00 00 00 00 00 00 00 00 00 00 00 00 00 00 00 EA 00 D2 00 00 00 00 00 00 00 00 00 00 00 00 00 00 00 00 00 00 00 00 00 3C 00 3B 00 00 00 A5 1C 7D 
77528432,229,00 10 08 2B 00 5A B4 57 46 32 33 31 32 32 37 30 37 30 36 00 00 00 00 04 04 08 2B 00 00 00 00 FF E3 FF E4 00 25 00 00 5A A5 00 00 00 00 00 00 00 8A 00 24 00 87 00 25 00 00 00 00 00 00 00 00 00 00 00 00 00 00 01 F8 00 00 00 00 00 00 00 33 00 33 00 80 00 41 02 2C 02 0B 00 00 00 00 00 33 00 33 00 7D 00 3F 02 2A 02 0B 00 00 00 00 01 F9 00 0B 01 9F 01 48 00 00 00 00 00 00 00 00 00 00 00 00 00 82 00 00 00 10 00 00 00 00 00 00 00 00 00 00 00 00 00 00 00 00 00 00 01 03 00 00 00 00 64 00 00 00 00 00 00 00 00 00 00 00 00 00 00 00 00 00 00 00 00 00 00 00 00 00 00 00 22 D9 
77653216,230,05 03 03 F3 00 0E 35 FD 
77756480,231,05 03 1C 00 01 01 F9 00 00 00 00 00 10 00 82 01 F8 00 0B 00 00 00 00 5A A5 01 9F 00 EA 01 48 01 AD 
78154716,232,06 03 03 F3 00 0E 35 CE 
78656208,233,03 03 08 33 00 16 37 89 
78778500,234,03 03 2C 02 0B 00 00 00 00 00 33 00 6E 00 91 01 A2 00 40 00 80 02 2C 00 00 00 78 00 00 00 00 09 00 00 14 58 21 00 00 00 00 00 02 00 00 00 00 73 FF 
79180612,235,03 10 07 CF 00 05 0A 00 33 00 03 00 00 00 00 08 50 5C 58 
79217804,236,03 10 07 CF 00 05 30 A3 
79659248,237,04 03 08 33 00 16 36 3E 
79781352,238,04 03 2C 02 0B 00 00 00 00 00 33 00 6E 00 91 01 A1 00 3F 00 7D 02 2A 00 00 00 76 00 00 00 00 09 00 00 14 58 21 00 00 00 00 00 02 00 00 00 00 68 33 
80183628,239,04 10 07 CF 00 05 0A 00 33 00 03 00 00 00 00 08 50 EE 69 
80220112,240,04 10 07 CF 00 05 31 14 
80764272,241,01 03 0B B9 00 15 57 C4 01 03 2A 00 00 00 00 00 00 00 00 00 00 00 00 00 00 00 00 00 00 00 00 00 00 00 00 00 0A 03 06 00 00 00 04 00 19 00 0B 00 1B 00 0D 00 2B 73 37 
81163732,242,02 03 0B B9 00 15 57 F7 
82041960,243,00 10 07 D1 00 5A B4 57 46 32 33 31 32 32 37 30 37 30 36 00 00 00 00 04 04 07 D1 00 01 00 01 02 26 00 00 00 0A 03 05 00 09 00 09 00 00 00 00 00 00 00 A5 01 F4 02 2B 00 00 01 0C 00 A1 FF E5 00 00 00 00 00 9E FF E3 00 00 00 00 00 00 00 00 00 00 00 00 00 00 00 00 00 00 00 00 00 AD 00 B4 00 00 00 00 02 C1 02 BF 00 00 00 00 00 00 00 00 00 00 00 00 00 00 00 00 00 00 00 00 02 2D 00 00 00 00 00 00 02 26 00 00 00 00 00 00 00 00 00 00 00 00 00 00 00 00 00 00 00 00 00 00 00 EA 00 D2 00 00 00 00 00 00 00 00 00 00 00 00 00 00 00 00 00 00 00 00 00 3C 00 3B 00 00 00 A5 DF 27 
82543484,244,00 10 08 2B 00 5A B4 57 46 32 33 31 32 32 37 30 37 30 36 00 00 00 00 04 04 08 2B 00 00 00 00 FF E3 FF E4 00 25 00 00 5A A5 00 00 00 00 00 00 00 8A 00 21 00 86 00 25 00 00 00 00 00 00 00 00 00 00 00 00 00 00 01 F8 00 00 00 00 00 00 00 33 00 33 00 80 00 41 02 2C 02 0B 00 00 00 00 00 33 00 33 00 7D 00 3F 02 2A 02 0B 00 00 00 00 01 FE 00 0B 01 9F 01 48 00 00 00 00 00 00 00 00 00 00 00 00 00 82 00 00 00 10 00 00 00 00 00 00 00 00 00 00 00 00 00 00 00 00 00 00 01 03 00 00 00 00 64 00 00 00 00 00 00 00 00 00 00 00 00 00 00 00 00 00 00 00 00 00 00 00 00 00 00 00 F8 4E 
82668268,245,05 03 03 F3 00 0E 35 FD 
82771268,246,05 03 1C 00 01 01 F9 00 00 00 00 00 10 00 82 01 F8 00 0B 00 00 00 00 5A A5 01 9D 00 EB 01 48 29 AD 
83180188,247,05 10 03 F3 00 02 04 00 01 01 FE 6C EE 
83220508,248,05 10 03 F3 00 02 B0 3B 
83671260,249,06 03 03 F3 00 0E 35 CE 
84172780,250,03 03 08 33 00 16 37 89 
84294828,251,03 03 2C 02 0B 00 00 00 00 00 33 00 6E 00 91 01 A1 00 40 00 80 02 2B 00 00 00 78 00 00 00 00 09 00 00 14 58 21 00 00 00 00 00 02 00 00 00 00 69 90 
84697184,252,03 10 07 CF 00 05 0A 00 33 00 03 00 00 00 00 08 50 5C 58 
84734164,253,03 10 07 CF 00 05 30 A3 
85175792,254,04 03 08 33 00 16 36 3E 
85298052,255,04 03 2C 02 0B 00 00 00 00 00 33 00 6E 00 91 01 A1 00 3F 00 7D 02 2A 00 00 00 76 00 00 00 00 09 00 00 14 58 21 00 00 00 00 00 02 00 00 00 00 68 33 
85700196,256,04 10 07 CF 00 05 0A 00 33 00 03 00 00 00 00 08 50 EE 69 
85736736,257,04 10 07 CF 00 05 31 14 
86178784,258,01 03 0B B9 00 15 57 C4 
86300076,259,01 03 2A 00 00 00 00 00 00 00 00 00 00 00 00 00 00 00 00 00 00 00 00 00 00 00 00 00 0A 03 06 00 00 00 04 00 19 00 0B 00 1B 00 0D 00 2B 73 37 
86680304,260,02 03 0B B9 00 15 57 F7 
87558532,261,00 10 07 D1 00 5A B4 57 46 32 33 31 32 32 37 30 37 30 36 00 00 00 00 04 04 07 D1 00 01 00 01 02 26 00 00 00 0A 03 05 00 09 00 09 00 00 00 00 00 00 00 A5 01 F4 02 2A 00 00 01 0C 00 A0 FF E5 00 00 00 00 00 9E FF E3 00 00 00 00 00 00 00 00 00 00 00 00 00 00 00 00 00 00 00 00 00 AF 00 B6 00 00 00 00 02 C1 02 BF 00 00 00 00 00 00 00 00 00 00 00 00 00 00 00 00 00 00 00 00 02 2D 00 00 00 00 00 00 02 25 00 00 00 00 00 00 00 00 00 00 00 00 00 00 00 00 00 00 00 00 00 00 00 E7 00 CF 00 00 00 00 00 00 00 00 00 00 00 00 00 00 00 00 00 00 00 00 00 3C 00 3B 00 00 00 A5 D9 91 
88060032,262,00 10 08 2B 00 5A B4 57 46 32 33 31 32 32 37 30 37 30 36 00 00 00 00 04 04 08 2B 00 00 00 00 FF E3 FF E4 00 25 00 00 5A A5 00 00 00 00 00 00 00 89 00 21 00 86 00 25 00 00 00 00 00 00 00 00 00 00 00 00 00 00 01 F8 00 00 00 00 00 00 00 33 00 33 00 80 00 41 02 2B 02 0B 00 00 00 00 00 33 00 33 00 7D 00 3F 02 2A 02 0B 00 00 00 00 01 FE 00 0B 01 9D 01 48 00 00 00 00 00 00 00 00 00 00 00 00 00 82 00 00 00 10 00 00 00 00 00 00 00 00 00 00 00 00 00 00 00 00 00 00 01 03 00 00 00 00 64 00 00 00 00 00 00 00 00 00 00 00 00 00 00 00 00 00 00 00 00 00 00 00 00 00 00 00 FF EF 
88184816,263,05 03 03 F3 00 0E 35 FD 
88288048,264,05 03 1C 00 01 01 FE 00 00 00 00 00 10 00 86 01 FE 00 0B 00 00 00 00 5A A5 01 9D 00 EB 01 48 47 00 
88686308,265,06 03 03 F3 00 0E 35 CE 
89187832,266,03 03 08 33 00 16 37 89 
89310036,267,03 03 2C 02 0B 00 00 00 00 00 33 00 6E 00 91 01 A1 00 40 00 80 02 2B 00 00 00 78 00 00 00 00 09 00 00 14 58 21 00 00 00 00 00 02 00 00 00 00 69 90 
89712232,268,03 10 07 CF 00 05 0A 00 33 00 03 00 00 00 00 08 50 5C 58 
89749372,269,03 10 07 CF 00 05 30 A3 
90190844,270,04 03 08 33 00 16 36 3E 
90313284,271,04 03 2C 02 0B 00 00 00 00 00 33 00 6E 00 91 01 A0 00 3F 00 7D 02 2A 00 00 00 76 00 00 00 00 09 00 00 14 58 21 00 00 00 00 00 02 00 00 00 00 F9 F3 
90715248,272,04 10 07 CF 00 05 0A 00 33 00 03 00 00 00 00 08 50 EE 69 
90751996,273,04 10 07 CF 00 05 31 14 
91295816,274,01 03 0B B9 00 15 57 C4 01 03 2A 00 00 00 00 00 00 00 00 00 00 00 00 00 00 00 00 00 00 00 00 00 00 00 00 00 0A 03 06 00 00 00 04 00 19 00 0B 00 1B 00 0D 00 2B 73 37 
91695356,275,02 03 0B B9 00 15 57 F7 
92573584,276,00 10 07 D1 00 5A B4 57 46 32 33 31 32 32 37 30 37 30 36 00 00 00 00 04 04 07 D1 00 01 00 01 02 26 00 00 00 0A 03 05 00 09 00 09 00 00 00 00 00 00 00 A5 01 F4 02 2A 00 00 01 0C 00 A0 FF E5 00 00 00 00 00 9E FF E3 00 00 00 00 00 00 00 00 00 00 00 00 00 00 00 00 00 00 00 00 00 B0 00 B7 00 00 00 00 02 C1 02 BE 00 00 00 00 00 00 00 00 00 00 00 00 00 00 00 00 00 00 00 00 02 2D 00 00 00 00 00 00 02 25 00 00 00 00 00 00 00 00 00 00 00 00 00 00 00 00 00 00 00 00 00 00 00 E7 00 CF 00 00 00 00 00 00 00 00 00 00 00 00 00 00 00 00 00 00 00 00 00 3C 00 3B 00 00 00 A5 AE 1E 
93075076,277,00 10 08 2B 00 5A B4 57 46 32 33 31 32 32 37 30 37 30 36 00 00 00 00 04 04 08 2B 00 00 00 00 FF E3 FF E4 00 25 00 00 5A A5 00 00 00 00 00 00 00 89 00 21 00 86 00 25 00 00 00 00 00 00 00 00 00 00 00 00 00 00 01 FE 00 00 00 00 00 00 00 33 00 33 00 80 00 41 02 2B 02 0B 00 00 00 00 00 33 00 33 00 7D 00 3F 02 2A 02 0B 00 00 00 00 01 FE 00 0B 01 9D 01 48 00 00 00 00 00 00 00 00 00 00 00 00 00 86 00 00 00 10 00 00 00 00 00 00 00 00 00 00 00 00 00 00 00 00 00 00 01 03 00 00 00 00 64 00 00 00 00 00 00 00 00 00 00 00 00 00 00 00 00 00 00 00 00 00 00 00 00 00 00 00 89 6B 
93199892,278,05 03 03 F3 00 0E 35 FD 
93303044,279,05 03 1C 00 01 01 FE 00 00 00 00 00 10 00 87 01 FE 00 0B 00 00 00 00 5A A5 01 9F 00 EB 01 48 6F 50 
93701384,280,06 03 03 F3 00 0E 35 CE 
94202880,281,03 03 08 33 00 16 37 89 
94325348,282,03 03 2C 02 0B 00 00 00 00 00 33 00 6E 00 91 01 A1 00 40 00 80 02 2B 00 00 00 78 00 00 00 00 09 00 00 14 58 21 00 00 00 00 00 02 00 00 00 00 69 90 
94727284,283,03 10 07 CF 00 05 0A 00 33 00 03 00 00 00 00 08 50 5C 58 
94764632,284,03 10 07 CF 00 05 30 A3 
95205896,285,04 03 08 33 00 16 36 3E 
95327684,286,04 03 2C 02 0B 00 00 00 00 00 33 00 6E 00 91 01 A0 00 3F 00 7D 02 2A 00 00 00 76 00 00 00 00 09 00 00 14 58 21 00 00 00 00 00 02 00 00 00 00 F9 F3 
95730300,287,04 10 07 CF 00 05 0A 00 33 00 03 00 00 00 00 08 50 EE 69 
95767280,288,04 10 07 CF 00 05 31 14 
96208916,289,01 03 0B B9 00 15 57 C4 
96365388,290,01 03 2A 00 00 00 00 00 00 00 00 00 00 00 00 00 00 00 00 00 00 00 00 00 00 00 00 00 0A 03 06 00 00 00 04 00 19 00 0B 00 1B 00 0D 00 2B 73 37 
96710404,291,02 03 0B B9 00 15 57 F7 
97588632,292,00 10 07 D1 00 5A B4 57 46 32 33 31 32 32 37 30 37 30 36 00 00 00 00 04 04 07 D1 00 01 00 01 02 26 00 00 00 0A 03 05 00 09 00 09 00 00 00 00 00 00 00 A5 01 F4 02 2A 00 00 01 0C 00 A0 FF E5 00 00 00 00 00 9E FF E3 00 00 00 00 00 00 00 00 00 00 00 00 00 00 00 00 00 00 00 00 00 B1 00 B8 00 00 00 00 02 C1 02 BE 00 00 00 00 00 00 00 00 00 00 00 00 00 00 00 00 00 00 00 00 02 2D 00 00 00 00 00 00 02 25 00 00 00 00 00 00 00 00 00 00 00 00 00 00 00 00 00 00 00 00 00 00 00 E7 00 CF 00 00 00 00 00 00 00 00 00 00 00 00 00 00 00 00 00 00 00 00 00 3B 00 3B 00 00 00 A5 27 80 
98090128,293,00 10 08 2B 00 5A B4 57 46 32 33 31 32 32 37 30 37 30 36 00 00 00 00 04 04 08 2B 00 00 00 00 FF E3 FF E4 00 25 00 00 5A A5 00 00 00 00 00 00 00 88 00 21 00 86 00 25 00 00 00 00 00 00 00 00 00 00 00 00 00 00 01 FE 00 00 00 00 00 00 00 33 00 33 00 80 00 41 02 2B 02 0B 00 00 00 00 00 33 00 33 00 7D 00 3F 02 2A 02 0B 00 00 00 00 01 FE 00 0B 01 9F 01 48 00 00 00 00 00 00 00 00 00 00 00 00 00 87 00 00 00 10 00 00 00 00 00 00 00 00 00 00 00 00 00 00 00 00 00 00 01 03 00 00 00 00 64 00 00 00 00 00 00 00 00 00 00 00 00 00 00 00 00 00 00 00 00 00 00 00 00 00 00 00 D3 74 
98214940,294,05 03 03 F3 00 0E 35 FD 
98317808,295,05 03 1C 00 01 01 FE 00 00 00 00 00 10 00 87 01 FE 00 0B 00 00 00 00 5A A5 01 9D 00 EB 01 48 16 90 
98726836,296,05 10 03 F3 00 02 04 00 01 02 03 AD 9F 
98767260,297,05 10 03 F3 00 02 B0 3B 
99217932,298,06 03 03 F3 00 0E 35 CE 
99719452,299,03 03 08 33 00 16 37 89 
99841684,300,03 03 2C 02 0B 00 00 00 00 00 33 00 6E 00 91 01 A1 00 40 00 80 02 2C 00 00 00 78 00 00 00 00 09 00 00 14 58 21 00 00 00 00 00 02 00 00 00 00 C3 FE 
100243828,301,03 10 07 CF 00 05 0A 00 33 00 03 00 00 00 00 08 50 5C 58 
100280992,302,03 10 07 CF 00 05 30 A3 
100722440,303,04 03 08 33 00 16 36 3E 
100844180,304,04 03 2C 02 0B 00 00 00 00 00 33 00 6E 00 91 01 A0 00 3F 00 7D 02 2A 00 00 00 76 00 00 00 00 09 00 00 14 58 21 00 00 00 00 00 02 00 00 00 00 F9 F3 
101246844,305,04 10 07 CF 00 05 0A 00 33 00 03 00 00 00 00 08 50 EE 69 
101283932,306,04 10 07 CF 00 05 31 14 
101827412,307,01 03 0B B9 00 15 57 C4 01 03 2A 00 00 00 00 00 00 00 00 00 00 00 00 00 00 00 00 00 00 00 00 00 00 00 00 00 0A 03 06 00 00 00 04 00 19 00 0B 00 1B 00 0D 00 2B 73 37 
102226976,308,02 03 0B B9 00 15 57 F7 
103105176,309,00 10 07 D1 00 5A B4 57 46 32 33 31 32 32 37 30 37 30 36 00 00 00 00 04 04 07 D1 00 01 00 01 02 26 00 00 00 0A 03 05 00 09 00 09 00 00 00 00 00 00 00 A5 01 F4 02 2A 00 00 01 0C 00 9F FF E5 00 00 00 00 00 9D FF E3 00 00 00 00 00 00 00 00 00 00 00 00 00 00 00 00 00 00 00 00 00 B2 00 B8 00 00 00 00 02 C1 02 BE 00 00 00 00 00 00 00 00 00 00 00 00 00 00 00 00 00 00 00 00 02 2D 00 00 00 00 00 00 02 25 00 00 00 00 00 00 00 00 00 00 00 00 00 00 00 00 00 00 00 00 00 00 00 E7 00 CC 00 00 00 00 00 00 00 00 00 00 00 00 00 00 00 00 00 00 00 00 00 3B 00 3B 00 00 00 A5 88 26 
103606696,310,00 10 08 2B 00 5A B4 57 46 32 33 31 32 32 37 30 37 30 36 00 00 00 00 04 04 08 2B 00 00 00 00 FF E3 FF E4 00 25 00 00 5A A5 00 00 00 00 00 00 00 87 00 21 00 86 00 25 00 00 00 00 00 00 00 00 00 00 00 00 00 00 01 FE 00 00 00 00 00 00 00 33 00 33 00 80 00 41 02 2C 02 0B 00 00 00 00 00 33 00 33 00 7D 00 3F 02 2A 02 0B 00 00 00 00 02 03 00 0B 01 9D 01 48 00 00 00 00 00 00 00 00 00 00 00 00 00 87 00 00 00 10 00 00 00 00 00 00 00 00 00 00 00 00 00 00 00 00 00 00 01 03 00 00 00 00 64 00 00 00 00 00 00 00 00 00 00 00 00 00 00 00 00 00 00 00 00 00 00 00 00 00 00 00 AC 8B 
103731484,311,05 03 03 F3 00 0E 35 FD 
103834800,312,05 03 1C 00 01 02 03 00 00 00 00 00 10 00 86 01 FE 00 0B 00 00 00 00 5A A5 01 9D 00 EA 01 48 B0 D6 
104232984,313,06 03 03 F3 00 0E 35 CE 
104734504,314,03 03 08 33 00 16 37 89 
104856916,315,03 03 2C 02 0B 00 00 00 00 00 33 00 6E 00 91 01 A1 00 40 00 80 02 2C 00 00 00 78 00 00 00 00 09 00 00 14 58 21 00 00 00 00 00 02 00 00 00 00 C3 FE 
105258880,316,03 10 07 CF 00 05 0A 00 33 00 03 00 00 00 00 08 50 5C 58 
105296252,317,03 10 07 CF 00 05 30 A3 
105737516,318,04 03 08 33 00 16 36 3E 
105859384,319,04 03 2C 02 0B 00 00 00 00 00 33 00 6E 00 91 01 A0 00 3F 00 7D 02 2A 00 00 00 76 00 00 00 00 09 00 00 14 58 21 00 00 00 00 00 02 00 00 00 00 F9 F3 
106261892,320,04 10 07 CF 00 05 0A 00 33 00 03 00 00 00 00 08 50 EE 69 
106299164,321,04 10 07 CF 00 05 31 14 
106842360,322,01 03 0B B9 00 15 57 C4 01 03 2A 00 00 00 00 00 00 00 00 00 00 00 00 00 00 00 00 00 00 00 00 00 00 00 00 00 0A 03 06 00 00 00 04 00 19 00 0B 00 1B 00 0D 00 2B 73 37 
107242028,323,02 03 0B B9 00 15 57 F7 
108120228,324,00 10 07 D1 00 5A B4 57 46 32 33 31 32 32 37 30 37 30 36 00 00 00 00 04 04 07 D1 00 01 00 01 02 26 00 00 00 0A 03 05 00 09 00 09 00 00 00 00 00 00 00 A5 01 F4 02 2A 00 00 01 0C 00 9F FF E5 00 00 00 00 00 9D FF E3 00 00 00 00 00 00 00 00 00 00 00 00 00 00 00 00 00 00 00 00 00 B2 00 B8 00 00 00 00 02 C0 02 BE 00 00 00 00 00 00 00 00 00 00 00 00 00 00 00 00 00 00 00 00 02 2C 00 00 00 00 00 00 02 25 00 00 00 00 00 00 00 00 00 00 00 00 00 00 00 00 00 00 00 00 00 00 00 E7 00 CC 00 00 00 00 00 00 00 00 00 00 00 00 00 00 00 00 00 00 00 00 00 3C 00 3B 00 00 00 A5 D0 A4 
108621748,325,00 10 08 2B 00 5A B4 57 46 32 33 31 32 32 37 30 37 30 36 00 00 00 00 04 04 08 2B 00 00 00 00 FF E3 FF E4 00 25 00 00 5A A5 00 00 00 00 00 00 00 88 00 21 00 87 00 25 00 00 00 00 00 00 00 00 00 00 00 00 00 00 01 FE 00 00 00 00 00 00 00 33 00 33 00 80 00 41 02 2C 02 0B 00 00 00 00 00 33 00 33 00 7D 00 3F 02 2A 02 0B 00 00 00 00 02 03 00 0B 01 9D 01 48 00 00 00 00 00 00 00 00 00 00 00 00 00 86 00 00 00 10 00 00 00 00 00 00 00 00 00 00 00 00 00 00 00 00 00 00 01 03 00 00 00 00 64 00 00 00 00 00 00 00 00 00 00 00 00 00 00 00 00 00 00 00 00 00 00 00 00 00 00 00 C9 9A 
108746536,326,05 03 03 F3 00 0E 35 FD 
108849796,327,05 03 1C 00 01 02 03 00 00 00 00 00 10 00 86 01 FE 00 0B 00 00 00 00 5A A5 01 9D 00 EB 01 48 E1 16 
109248032,328,06 03 03 F3 00 0E 35 CE 
109749552,329,03 03 08 33 00 16 37 89 
109872176,330,03 03 2C 02 0B 00 00 00 00 00 33 00 6E 00 91 01 A1 00 40 00 80 02 2C 00 00 00 78 00 00 00 00 09 00 00 14 58 21 00 00 00 00 00 02 00 00 00 00 C3 FE 
110273932,331,03 10 07 CF 00 05 0A 00 33 00 03 00 00 00 00 08 50 5C 58 
110310424,332,03 10 07 CF 00 05 30 A3 
110752568,333,04 03 08 33 00 16 36 3E 
110874616,334,04 03 2C 02 0B 00 00 00 00 00 33 00 6E 00 91 01 A1 00 3F 00 7D 02 2A 00 00 00 76 00 00 00 00 09 00 00 14 58 21 00 00 00 00 00 02 00 00 00 00 68 33 
111276944,335,04 10 07 CF 00 05 0A 00 33 00 03 00 00 00 00 08 50 EE 69 
111313356,336,04 10 07 CF 00 05 31 14 
111857568,337,01 03 0B B9 00 15 57 C4 01 03 2A 00 00 00 00 00 00 00 00 00 00 00 00 00 00 00 00 00 00 00 00 00 00 00 00 00 0A 03 06 00 00 00 04 00 19 00 0B 00 1B 00 0D 00 2B 73 37 
112257076,338,02 03 0B B9 00 15 57 F7 
113135280,339,00 10 07 D1 00 5A B4 57 46 32 33 31 32 32 37 30 37 30 36 00 00 00 00 04 04 07 D1 00 01 00 01 02 26 00 00 00 0A 03 05 00 09 00 09 00 00 00 00 00 00 00 A5 01 F3 02 2A 00 00 01 0C 00 9F FF E5 00 00 00 00 00 9D FF E3 00 00 00 00 00 00 00 00 00 00 00 00 00 00 00 00 00 00 00 00 00 B2 00 B8 00 00 00 00 02 C0 02 BE 00 00 00 00 00 00 00 00 00 00 00 00 00 00 00 00 00 00 00 00 02 2C 00 00 00 00 00 00 02 24 00 00 00 00 00 00 00 00 00 00 00 00 00 00 00 00 00 00 00 00 00 00 00 E7 00 CC 00 00 00 00 00 00 00 00 00 00 00 00 00 00 00 00 00 00 00 00 00 3C 00 3B 00 00 00 A5 5B CB 
113636800,340,00 10 08 2B 00 5A B4 57 46 32 33 31 32 32 37 30 37 30 36 00 00 00 00 04 04 08 2B 00 00 00 00 FF E3 FF E4 00 25 00 00 5A A5 00 00 00 00 00 00 00 88 00 29 00 88 00 25 00 00 00 00 00 00 00 00 00 00 00 00 00 00 01 FE 00 00 00 00 00 00 00 33 00 33 00 80 00 41 02 2C 02 0B 00 00 00 00 00 33 00 33 00 7D 00 3F 02 2A 02 0B 00 00 00 00 02 03 00 0B 01 9D 01 48 00 00 00 00 00 00 00 00 00 00 00 00 00 86 00 00 00 10 00 00 00 00 00 00 00 00 00 00 00 00 00 00 00 00 00 00 01 03 00 00 00 00 64 00 00 00 00 00 00 00 00 00 00 00 00 00 00 00 00 00 00 00 00 00 00 00 00 00 00 00 AB 66 
113761588,341,05 03 03 F3 00 0E 35 FD 
113864768,342,05 03 1C 00 01 02 03 00 00 00 00 00 10 00 86 01 FE 00 0B 00 00 00 00 5A A5 01 9D 00 EB 01 48 E1 16 
114263084,343,06 03 03 F3 00 0E 35 CE 
114764604,344,03 03 08 33 00 16 37 89 
114886392,345,03 03 2C 02 0B 00 00 00 00 00 33 00 6E 00 91 01 A1 00 40 00 80 02 2C 00 00 00 78 00 00 00 00 09 00 00 14 58 21 00 00 00 00 00 02 00 00 00 00 C3 FE 
115288980,346,03 10 07 CF 00 05 0A 00 33 00 03 00 00 00 00 08 50 5C 58 
115325704,347,03 10 07 CF 00 05 30 A3 
115767620,348,04 03 08 33 00 16 36 3E 
115889824,349,04 03 2C 02 0B 00 00 00 00 00 33 00 6E 00 91 01 A1 00 3F 00 7D 02 2A 00 00 00 76 00 00 00 00 09 00 00 14 58 21 00 00 00 00 00 02 00 00 00 00 68 33 
116291996,350,04 10 07 CF 00 05 0A 00 33 00 03 00 00 00 00 08 50 EE 69 
116328588,351,04 10 07 CF 00 05 31 14 
116872616,352,01 03 0B B9 00 15 57 C4 01 03 2A 00 00 00 00 00 00 00 00 00 00 00 00 00 00 00 00 00 00 00 00 00 00 00 00 00 0A 03 06 00 00 00 04 00 19 00 0B 00 1B 00 0D 00 2B 73 37 
117272128,353,02 03 0B B9 00 15 57 F7 
118150328,354,00 10 07 D1 00 5A B4 57 46 32 33 31 32 32 37 30 37 30 36 00 00 00 00 04 04 07 D1 00 01 00 01 02 26 00 00 00 0A 03 05 00 09 00 09 00 00 00 00 00 00 00 A5 01 F3 02 2A 00 00 01 0C 00 9F FF E5 00 00 00 00 00 9E FF E3 00 00 00 00 00 00 00 00 00 00 00 00 00 00 00 00 00 00 00 00 00 B3 00 B9 00 00 00 00 02 C0 02 BE 00 00 00 00 00 00 00 00 00 00 00 00 00 00 00 00 00 00 00 00 02 2C 00 00 00 00 00 00 02 24 00 00 00 00 00 00 00 00 00 00 00 00 00 00 00 00 00 00 00 00 00 00 00 E7 00 C9 00 00 00 00 00 00 00 00 00 00 00 00 00 00 00 00 00 00 00 00 00 3C 00 3C 00 00 00 A5 48 32 
118651824,355,00 10 08 2B 00 5A B4 57 46 32 33 31 32 32 37 30 37 30 36 00 00 00 00 04 04 08 2B 00 00 00 00 FF E3 FF E4 00 25 00 00 5A A5 00 00 00 00 00 00 00 8B 00 29 00 89 00 25 00 00 00 00 00 00 00 00 00 00 00 00 00 00 01 FE 00 00 00 00 00 00 00 33 00 33 00 80 00 41 02 2C 02 0B 00 00 00 00 00 33 00 33 00 7D 00 3F 02 2A 02 0B 00 00 00 00 01 FE 00 0B 01 9D 01 48 00 00 00 00 00 00 00 00 00 00 00 00 00 86 00 00 00 10 00 00 00 00 00 00 00 00 00 00 00 00 00 00 00 00 00 00 01 03 00 00 00 00 64 00 00 00 00 00 00 00 00 00 00 00 00 00 00 00 00 00 00 00 00 00 00 00 00 00 00 00 89 6A 
118776612,356,05 03 03 F3 00 0E 35 FD 
118879532,357,05 03 1C 00 01 02 03 00 00 00 00 00 10 00 86 01 FE 00 0B 00 00 00 00 5A A5 01 9D 00 EB 01 48 E1 16 
119288532,358,05 10 03 F3 00 02 04 00 01 01 FE 6C EE 
119328772,359,05 10 03 F3 00 02 B0 3B 
119779628,360,06 03 03 F3 00 0E 35 CE 
120281128,361,03 03 08 33 00 16 37 89 
120403772,362,03 03 2C 02 0B 00 00 00 00 00 33 00 6E 00 91 01 A1 00 40 00 80 02 2C 00 00 00 78 00 00 00 00 09 00 00 14 58 21 00 00 00 00 00 02 00 00 00 00 C3 FE 
120805528,363,03 10 07 CF 00 05 0A 00 33 00 03 00 00 00 00 08 50 5C 58 
120842012,364,03 10 07 CF 00 05 30 A3 
121284136,365,04 03 08 33 00 16 36 3E 
121406504,366,04 03 2C 02 0B 00 00 00 00 00 33 00 6E 00 91 01 A1 00 3F 00 7D 02 2A 00 00 00 76 00 00 00 00 09 00 00 14 58 21 00 00 00 00 00 02 00 00 00 00 68 33 
121808540,367,04 10 07 CF 00 05 0A 00 33 00 03 00 00 00 00 08 50 EE 69 
121845184,368,04 10 07 CF 00 05 31 14 
122287152,369,01 03 0B B9 00 15 57 C4 
122788648,370,02 03 0B B9 00 15 57 F7 
123666876,371,00 10 07 D1 00 5A B4 57 46 32 33 31 32 32 37 30 37 30 36 00 00 00 00 04 04 07 D1 00 01 00 01 02 26 00 00 00 0A 03 05 00 09 00 09 00 00 00 00 00 00 00 A5 01 F3 02 2A 00 00 01 0B 00 9F FF E5 00 00 00 00 00 9E FF E3 00 00 00 00 00 00 00 00 00 00 00 00 00 00 00 00 00 00 00 00 00 B2 00 B9 00 00 00 00 02 C0 02 BE 00 00 00 00 00 00 00 00 00 00 00 00 00 00 00 00 00 00 00 00 02 2C 00 00 00 00 00 00 02 24 00 00 00 00 00 00 00 00 00 00 00 00 00 00 00 00 00 00 00 00 00 00 00 E7 00 C9 00 00 00 00 00 00 00 00 00 00 00 00 00 00 00 00 00 00 00 00 00 3C 00 3C 00 00 00 A5 F8 5F 
124168372,372,00 10 08 2B 00 5A B4 57 46 32 33 31 32 32 37 30 37 30 36 00 00 00 00 04 04 08 2B 00 00 00 00 FF E3 FF E4 00 25 00 00 5A A5 00 00 00 00 00 00 00 8D 00 29 00 8A 00 25 00 00 00 00 00 00 00 00 00 00 00 00 00 00 01 FE 00 00 00 00 00 00 00 33 00 33 00 80 00 41 02 2C 02 0B 00 00 00 00 00 33 00 33 00 7D 00 3F 02 2A 02 0B 00 00 00 00 01 FE 00 0B 01 9D 01 48 00 00 00 00 00 00 00 00 00 00 00 00 00 86 00 00 00 10 00 00 00 00 00 00 00 00 00 00 00 00 00 00 00 00 00 00 01 03 00 00 00 00 64 00 00 00 00 00 00 00 00 00 00 00 00 00 00 00 00 00 00 00 00 00 00 00 00 00 00 00 17 C8 
124293160,373,05 03 03 F3 00 0E 35 FD 
124396520,374,05 03 1C 00 01 01 FE 00 00 00 00 00 10 00 86 01 FE 00 0B 00 00 00 00 5A A5 01 9F 00 EA 01 48 6F 00 
124794680,375,06 03 03 F3 00 0E 35 CE 
125296172,376,03 03 08 33 00 16 37 89 
125417912,377,03 03 2C 02 0B 00 00 00 00 00 33 00 6E 00 91 01 A2 00 40 00 80 02 2C 00 00 00 78 00 00 00 00 09 00 00 14 58 21 00 00 00 00 00 02 00 00 00 00 73 FF 
125820576,378,03 10 07 CF 00 05 0A 00 33 00 03 00 00 00 00 08 50 5C 58 
125857244,379,03 10 07 CF 00 05 30 A3 
126299164,380,04 03 08 33 00 16 36 3E 
126420664,381,04 03 2C 02 0B 00 00 00 00 00 33 00 6E 00 91 01 A1 00 3F 00 7D 02 2A 00 00 00 76 00 00 00 00 09 00 00 14 58 21 00 00 00 00 00 02 00 00 00 00 68 33 
126823564,382,04 10 07 CF 00 05 0A 00 33 00 03 00 00 00 00 08 50 EE 69 
126860468,383,04 10 07 CF 00 05 31 14 
127404184,384,01 03 0B B9 00 15 57 C4 01 03 2A 00 00 00 00 00 00 00 00 00 00 00 00 00 00 00 00 00 00 00 00 00 00 00 00 00 0A 03 06 00 00 00 04 00 19 00 0B 00 1B 00 0D 00 2B 73 37 
127803672,385,02 03 0B B9 00 15 57 F7 
128681900,386,00 10 07 D1 00 5A B4 57 46 32 33 31 32 32 37 30 37 30 36 00 00 00 00 04 04 07 D1 00 01 00 01 02 26 00 00 00 0A 03 05 00 09 00 09 00 00 00 00 00 00 00 A5 01 F3 02 2A 00 00 01 0C 00 A0 FF E5 00 00 00 00 00 9E FF E3 00 00 00 00 00 00 00 00 00 00 00 00 00 00 00 00 00 00 00 00 00 B2 00 BA 00 00 00 00 02 C0 02 BE 00 00 00 00 00 00 00 00 00 00 00 00 00 00 00 00 00 00 00 00 02 2C 00 00 00 00 00 00 02 24 00 00 00 00 00 00 00 00 00 00 00 00 00 00 00 00 00 00 00 00 00 00 00 E7 00 C9 00 00 00 00 00 00 00 00 00 00 00 00 00 00 00 00 00 00 00 00 00 3C 00 3C 00 00 00 A5 4E 7D 
129183392,387,00 10 08 2B 00 5A B4 57 46 32 33 31 32 32 37 30 37 30 36 00 00 00 00 04 04 08 2B 00 00 00 00 FF E3 FF E4 00 25 00 00 5A A5 00 00 00 00 00 00 00 8B 00 29 00 89 00 25 00 00 00 00 00 00 00 00 00 00 00 00 00 00 01 FE 00 00 00 00 00 00 00 33 00 33 00 80 00 41 02 2C 02 0B 00 00 00 00 00 33 00 33 00 7D 00 3F 02 2A 02 0B 00 00 00 00 01 FE 00 0B 01 9F 01 48 00 00 00 00 00 00 00 00 00 00 00 00 00 86 00 00 00 10 00 00 00 00 00 00 00 00 00 00 00 00 00 00 00 00 00 00 01 03 00 00 00 00 64 00 00 00 00 00 00 00 00 00 00 00 00 00 00 00 00 00 00 00 00 00 00 00 00 00 00 00 2E 88 
129308208,388,05 03 03 F3 00 0E 35 FD 
129411284,389,05 03 1C 00 01 01 FE 00 00 00 00 00 10 00 86 01 FE 00 0B 00 00 00 00 5A A5 01 9F 00 EA 01 48 6F 00 
129809700,390,06 03 03 F3 00 0E 35 CE 
130311196,391,03 03 08 33 00 16 37 89 
130433168,392,03 03 2C 02 0B 00 00 00 00 00 33 00 6E 00 91 01 A1 00 40 00 80 02 2B 00 00 00 78 00 00 00 00 09 00 00 14 58 21 00 00 00 00 00 02 00 00 00 00 69 90 
130835600,393,03 10 07 CF 00 05 0A 00 33 00 03 00 00 00 00 08 50 5C 58 
130872504,394,03 10 07 CF 00 05 30 A3 
131314212,395,04 03 08 33 00 16 36 3E 
131436108,396,04 03 2C 02 0B 00 00 00 00 00 33 00 6E 00 91 01 A0 00 3F 00 7D 02 2A 00 00 00 76 00 00 00 00 09 00 00 14 58 21 00 00 00 00 00 02 00 00 00 00 F9 F3 
131838616,397,04 10 07 CF 00 05 0A 00 33 00 03 00 00 00 00 08 50 EE 69 
131875700,398,04 10 07 CF 00 05 31 14 
132419312,399,01 03 0B B9 00 15 57 C4 01 03 2A 00 00 00 00 00 00 00 00 00 00 00 00 00 00 00 00 00 00 00 00 00 00 00 00 00 0A 03 06 00 00 00 04 00 19 00 0B 00 1B 00 0D 00 2B 73 37 
132818724,400,02 03 0B B9 00 15 57 F7 
133696952,401,00 10 07 D1 00 5A B4 57 46 32 33 31 32 32 37 30 37 30 36 00 00 00 00 04 04 07 D1 00 01 00 01 02 26 00 00 00 0A 03 05 00 09 00 09 00 00 00 00 00 00 00 A5 01 F3 02 2A 00 00 01 0B 00 A0 FF E5 00 00 00 00 00 9F FF E3 00 00 00 00 00 00 00 00 00 00 00 00 00 00 00 00 00 00 00 00 00 B2 00 BB 00 00 00 00 02 C0 02 BE 00 00 00 00 00 00 00 00 00 00 00 00 00 00 00 00 00 00 00 00 02 2C 00 00 00 00 00 00 02 24 00 00 00 00 00 00 00 00 00 00 00 00 00 00 00 00 00 00 00 00 00 00 00 E7 00 C6 00 00 00 00 00 00 00 00 00 00 00 00 00 00 00 00 00 00 00 00 00 3C 00 3C 00 00 00 A5 FA 26 
134198444,402,00 10 08 2B 00 5A B4 57 46 32 33 31 32 32 37 30 37 30 36 00 00 00 00 04 04 08 2B 00 00 00 00 FF E3 FF E4 00 25 00 00 5A A5 00 00 00 00 00 00 00 8A 00 29 00 88 00 25 00 00 00 00 00 00 00 00 00 00 00 00 00 00 01 FE 00 00 00 00 00 00 00 33 00 33 00 80 00 41 02 2B 02 0B 00 00 00 00 00 33 00 33 00 7D 00 3F 02 2A 02 0B 00 00 00 00 01 F9 00 0B 01 9F 01 48 00 00 00 00 00 00 00 00 00 00 00 00 00 86 00 00 00 10 00 00 00 00 00 00 00 00 00 00 00 00 00 00 00 00 00 00 01 03 00 00 00 00 64 00 00 00 00 00 00 00 00 00 00 00 00 00 00 00 00 00 00 00 00 00 00 00 00 00 00 00 C1 EC 
134323232,403,05 03 03 F3 00 0E 35 FD 
134426256,404,05 03 1C 00 01 01 FE 00 00 00 00 00 10 00 86 01 FE 00 0B 00 00 00 00 5A A5 01 9F 00 EA 01 48 6F 00 
134835152,405,05 10 03 F3 00 02 04 00 01 01 F9 2D 2C 
134875496,406,05 10 03 F3 00 02 B0 3B 
135326248,407,06 03 03 F3 00 0E 35 CE 
135827768,408,03 03 08 33 00 16 37 89 
135949532,409,03 03 2C 02 0B 00 00 00 00 00 33 00 6E 00 91 01 A1 00 40 00 80 02 2C 00 00 00 78 00 00 00 00 09 00 00 14 58 21 00 00 00 00 00 02 00 00 00 00 C3 FE 
136352148,410,03 10 07 CF 00 05 0A 00 33 00 03 00 00 00 00 08 50 5C 58 
136388840,411,03 10 07 CF 00 05 30 A3 
136830756,412,04 03 08 33 00 16 36 3E 
136952572,413,04 03 2C 02 0B 00 00 00 00 00 33 00 6E 00 91 01 A1 00 3E 00 7D 02 2A 00 00 00 76 00 00 00 00 09 00 00 14 58 21 00 00 00 00 00 02 00 00 00 00 A8 32 
137355160,414,04 10 07 CF 00 05 0A 00 33 00 03 00 00 00 00 08 50 EE 69 
137392352,415,04 10 07 CF 00 05 31 14 
137833772,416,01 03 0B B9 00 15 57 C4 
137990720,417,01 03 2A 00 00 00 00 00 00 00 00 00 00 00 00 00 00 00 00 00 00 00 00 00 00 00 00 00 0A 03 06 00 00 00 04 00 19 00 0B 00 1B 00 0D 00 2C 32 F5 
138335272,418,02 03 0B B9 00 15 57 F7 
139213496,419,00 10 07 D1 00 5A B4 57 46 32 33 31 32 32 37 30 37 30 36 00 00 00 00 04 04 07 D1 00 01 00 01 02 26 00 00 00 0A 03 05 00 09 00 09 00 00 00 00 00 00 00 A5 01 F3 02 2A 00 00 01 0B 00 A0 FF E5 00 00 00 00 00 9E FF E3 00 00 00 00 00 00 00 00 00 00 00 00 00 00 00 00 00 00 00 00 00 B3 00 BC 00 00 00 00 02 C0 02 BE 00 00 00 00 00 00 00 00 00 00 00 00 00 00 00 00 00 00 00 00 02 2C 00 00 00 00 00 00 02 24 00 00 00 00 00 00 00 00 00 00 00 00 00 00 00 00 00 00 00 00 00 00 00 E7 00 C6 00 00 00 00 00 00 00 00 00 00 00 00 00 00 00 00 00 00 00 00 00 3C 00 3B 00 00 00 A5 2E 7A 
139714988,420,00 10 08 2B 00 5A B4 57 46 32 33 31 32 32 37 30 37 30 36 00 00 00 00 04 04 08 2B 00 00 00 00 FF E3 FF E4 00 25 00 00 5A A5 00 00 00 00 00 00 00 89 00 29 00 87 00 25 00 00 00 00 00 00 00 00 00 00 00 00 00 00 01 FE 00 00 00 00 00 00 00 33 00 33 00 80 00 41 02 2C 02 0B 00 00 00 00 00 33 00 33 00 7D 00 3F 02 2A 02 0B 00 00 00 00 01 FE 00 0B 01 9F 01 48 00 00 00 00 00 00 00 00 00 00 00 00 00 86 00 00 00 10 00 00 00 00 00 00 00 00 00 00 00 00 00 00 00 00 00 00 01 03 00 00 00 00 64 00 00 00 00 00 00 00 00 00 00 00 00 00 00 00 00 00 00 00 00 00 00 00 00 00 00 00 EA 5D 
139839804,421,05 03 03 F3 00 0E 35 FD 
139943244,422,05 03 1C 00 01 01 F9 00 00 00 00 00 10 00 82 01 F8 00 0B 00 00 00 00 5A A5 01 9F 00 EB 01 48 50 6D 
140351696,423,05 10 03 F3 00 02 04 00 01 01 FE 6C EE 
140392488,424,05 10 03 F3 00 02 B0 3B 
140842792,425,06 03 03 F3 00 0E 35 CE 
141344288,426,03 03 08 33 00 16 37 89 
141466912,427,03 03 2C 02 0B 00 00 00 00 00 33 00 6E 00 91 01 A1 00 40 00 7F 02 2B 00 00 00 78 00 00 00 00 09 00 00 14 58 21 00 00 00 00 00 02 00 00 00 00 6A 7B 
141868688,428,03 10 07 CF 00 05 0A 00 33 00 03 00 00 00 00 08 50 5C 58 
141905124,429,03 10 07 CF 00 05 30 A3 
142347304,430,04 03 08 33 00 16 36 3E 
142469224,431,04 03 2C 02 0B 00 00 00 00 00 33 00 6E 00 91 01 A1 00 3F 00 7D 02 2A 00 00 00 76 00 00 00 00 09 00 00 14 58 21 00 00 00 00 00 02 00 00 00 00 68 33 
142871708,432,04 10 07 CF 00 05 0A 00 33 00 03 00 00 00 00 08 50 EE 69 
142908948,433,04 10 07 CF 00 05 31 14 
143452272,434,01 03 0B B9 00 15 57 C4 01 03 2A 00 00 00 00 00 00 00 00 00 00 00 00 00 00 00 00 00 00 00 00 00 00 00 00 00 0A 03 06 00 00 00 04 00 19 00 0B 00 1B 00 0D 00 2C 32 F5 
143851812,435,02 03 0B B9 00 15 57 F7 
144730040,436,00 10 07 D1 00 5A B4 57 46 32 33 31 32 32 37 30 37 30 36 00 00 00 00 04 04 07 D1 00 01 00 01 02 26 00 00 00 0A 03 05 00 09 00 09 00 00 00 00 00 00 00 A5 01 F3 02 29 00 00 01 0B 00 A0 FF E5 00 00 00 00 00 9E FF E3 00 00 00 00 00 00 00 00 00 00 00 00 00 00 00 00 00 00 00 00 00 B3 00 BD 00 00 00 00 02 BF 02 BE 00 00 00 00 00 00 00 00 00 00 00 00 00 00 00 00 00 00 00 00 02 2C 00 00 00 00 00 00 02 24 00 00 00 00 00 00 00 00 00 00 00 00 00 00 00 00 00 00 00 00 00 00 00 E7 00 C6 00 00 00 00 00 00 00 00 00 00 00 00 00 00 00 00 00 00 00 00 00 3C 00 3B 00 00 00 A5 E7 B6 
145231532,437,00 10 08 2B 00 5A B4 57 46 32 33 31 32 32 37 30 37 30 36 00 00 00 00 04 04 08 2B 00 00 00 00 FF E3 FF E4 00 25 00 00 5A A5 00 00 00 00 00 00 00 89 00 29 00 86 00 25 00 00 00 00 00 00 00 00 00 00 00 00 00 00 01 F8 00 00 00 00 00 00 00 33 00 33 00 7F 00 41 02 2B 02 0B 00 00 00 00 00 33 00 33 00 7D 00 3F 02 2A 02 0B 00 00 00 00 01 FE 00 0B 01 9F 01 48 00 00 00 00 00 00 00 00 00 00 00 00 00 82 00 00 00 10 00 00 00 00 00 00 00 00 00 00 00 00 00 00 00 00 00 00 01 03 00 00 00 00 64 00 00 00 00 00 00 00 00 00 00 00 00 00 00 00 00 00 00 00 00 00 00 00 00 00 00 00 85 C5 
145356320,438,05 03 03 F3 00 0E 35 FD 
145459608,439,05 03 1C 00 01 01 FE 00 00 00 00 00 10 00 86 01 FE 00 0B 00 00 00 00 5A A5 01 9D 00 EB 01 48 47 00 
145857840,440,06 03 03 F3 00 0E 35 CE 
146359336,441,03 03 08 33 00 16 37 89 
146481100,442,03 03 2C 02 0B 00 00 00 00 00 33 00 6E 00 91 01 A1 00 3F 00 7F 02 2B 00 00 00 78 00 00 00 00 09 00 00 14 58 21 00 00 00 00 00 02 00 00 00 00 2A 24 
146883740,443,03 10 07 CF 00 05 0A 00 33 00 03 00 00 00 00 08 50 5C 58 
146920436,444,03 10 07 CF 00 05 30 A3 
147362352,445,04 03 08 33 00 16 36 3E 
147484584,446,04 03 2C 02 0B 00 00 00 00 00 33 00 6E 00 91 01 A1 00 3F 00 7D 02 2A 00 00 00 76 00 00 00 00 09 00 00 14 58 21 00 00 00 00 00 02 00 00 00 00 68 33 
147886728,447,04 10 07 CF 00 05 0A 00 33 00 03 00 00 00 00 08 50 EE 69 
147923112,448,04 10 07 CF 00 05 31 14 
148467352,449,01 03 0B B9 00 15 57 C4 01 03 2A 00 00 00 00 00 00 00 00 00 00 00 00 00 00 00 00 00 00 00 00 00 00 00 00 00 0A 03 06 00 00 00 04 00 19 00 0B 00 1B 00 0D 00 2C 32 F5 
148866864,450,02 03 0B B9 00 15 57 F7 
149745064,451,00 10 07 D1 00 5A B4 57 46 32 33 31 32 32 37 30 37 30 36 00 00 00 00 04 04 07 D1 00 01 00 01 02 26 00 00 00 0A 03 05 00 09 00 09 00 00 00 00 00 00 00 A5 01 F2 02 29 00 00 01 0A 00 9F FF E5 00 00 00 00 00 9E FF E3 00 00 00 00 00 00 00 00 00 00 00 00 00 00 00 00 00 00 00 00 00 B4 00 BE 00 00 00 00 02 BF 02 BE 00 00 00 00 00 00 00 00 00 00 00 00 00 00 00 00 00 00 00 00 02 2C 00 00 00 00 00 00 02 24 00 00 00 00 00 00 00 00 00 00 00 00 00 00 00 00 00 00 00 00 00 00 00 E7 00 C3 00 00 00 00 00 00 00 00 00 00 00 00 00 00 00 00 00 00 00 00 00 3C 00 3B 00 00 00 A5 AA 4B 
150246584,452,00 10 08 2B 00 5A B4 57 46 32 33 31 32 32 37 30 37 30 36 00 00 00 00 04 04 08 2B 00 00 00 00 FF E3 FF E4 00 25 00 00 5A A5 00 00 00 00 00 00 00 89 00 29 00 87 00 25 00 00 00 00 00 00 00 00 00 00 00 00 00 00 01 FE 00 00 00 00 00 00 00 33 00 33 00 7F 00 41 02 2B 02 0B 00 00 00 00 00 33 00 33 00 7D 00 3F 02 2A 02 0B 00 00 00 00 01 FE 00 0B 01 9D 01 48 00 00 00 00 00 00 00 00 00 00 00 00 00 86 00 00 00 10 00 00 00 00 00 00 00 00 00 00 00 00 00 00 00 00 00 00 01 03 00 00 00 00 64 00 00 00 00 00 00 00 00 00 00 00 00 00 00 00 00 00 00 00 00 00 00 00 00 00 00 00 59 FF 
150371372,453,05 03 03 F3 00 0E 35 FD 
150474372,454,05 03 1C 00 01 01 FE 00 00 00 00 00 10 00 86 01 FE 00 0B 00 00 00 00 5A A5 01 9F 00 EB 01 48 3E C0 
150872868,455,06 03 03 F3 00 0E 35 CE 
151374388,456,03 03 08 33 00 16 37 89 
151496308,457,03 03 2C 02 0B 00 00 00 00 00 33 00 6E 00 91 01 A1 00 3F 00 7F 02 2C 00 00 00 78 00 00 00 00 09 00 00 14 58 21 00 00 00 00 00 02 00 00 00 00 80 4A 
151898792,458,03 10 07 CF 00 05 0A 00 33 00 03 00 00 00 00 08 50 5C 58 
151935616,459,03 10 07 CF 00 05 30 A3 
152377408,460,04 03 08 33 00 16 36 3E 
152499664,461,04 03 2C 02 0B 00 00 00 00 00 33 00 6E 00 91 01 A1 00 3E 00 7D 02 2A 00 00 00 76 00 00 00 00 09 00 00 14 58 21 00 00 00 00 00 02 00 00 00 00 A8 32 
152901780,462,04 10 07 CF 00 05 0A 00 33 00 03 00 00 00 00 08 50 EE 69 
152938372,463,04 10 07 CF 00 05 31 14 
153380392,464,01 03 0B B9 00 15 57 C4 
153881888,465,02 03 0B B9 00 15 57 F7 
154760116,466,00 10 07 D1 00 5A B4 57 46 32 33 31 32 32 37 30 37 30 36 00 00 00 00 04 04 07 D1 00 01 00 01 02 26 00 00 00 0A 03 05 00 09 00 09 00 00 00 00 00 00 00 A5 01 F2 02 29 00 00 01 0A 00 9F FF E5 00 00 00 00 00 9E FF E3 00 00 00 00 00 00 00 00 00 00 00 00 00 00 00 00 00 00 00 00 00 B5 00 BE 00 00 00 00 02 BF 02 BE 00 00 00 00 00 00 00 00 00 00 00 00 00 00 00 00 00 00 00 00 02 2C 00 00 00 00 00 00 02 24 00 00 00 00 00 00 00 00 00 00 00 00 00 00 00 00 00 00 00 00 00 00 00 E7 00 C3 00 00 00 00 00 00 00 00 00 00 00 00 00 00 00 00 00 00 00 00 00 3C 00 3B 00 00 00 A5 8F E7 
155261636,467,00 10 08 2B 00 5A B4 57 46 32 33 31 32 32 37 30 37 30 36 00 00 00 00 04 04 08 2B 00 00 00 00 FF E3 FF E4 00 25 00 00 5A A5 00 00 00 00 00 00 00 8A 00 29 00 87 00 25 00 00 00 00 00 00 00 00 00 00 00 00 00 00 01 FE 00 00 00 00 00 00 00 33 00 33 00 7F 00 41 02 2C 02 0B 00 00 00 00 00 33 00 33 00 7D 00 3F 02 2A 02 0B 00 00 00 00 01 FE 00 0B 01 9F 01 48 00 00 00 00 00 00 00 00 00 00 00 00 00 86 00 00 00 10 00 00 00 00 00 00 00 00 00 00 00 00 00 00 00 00 00 00 01 03 00 00 00 00 64 00 00 00 00 00 00 00 00 00 00 00 00 00 00 00 00 00 00 00 00 00 00 00 00 00 00 00 5E 5E 
155386424,468,05 03 03 F3 00 0E 35 FD 
155489760,469,05 03 1C 00 01 01 FE 00 00 00 00 00 10 00 86 01 FE 00 0B 00 00 00 00 5A A5 01 9F 00 EA 01 48 6F 00 
155887916,470,06 03 03 F3 00 0E 35 CE 
156389416,471,03 03 08 33 00 16 37 89 
156511568,472,03 03 2C 02 0B 00 00 00 00 00 33 00 6E 00 91 01 A1 00 3F 00 7F 02 2B 00 00 00 78 00 00 00 00 09 00 00 14 58 21 00 00 00 00 00 02 00 00 00 00 2A 24 
156913816,473,03 10 07 CF 00 05 0A 00 33 00 03 00 00 00 00 08 50 5C 58 
156950876,474,03 10 07 CF 00 05 30 A3 
157392428,475,04 03 08 33 00 16 36 3E 
157514868,476,04 03 2C 02 0B 00 00 00 00 00 33 00 6E 00 91 01 A0 00 3E 00 7D 02 2A 00 00 00 76 00 00 00 00 09 00 00 14 58 21 00 00 00 00 00 02 00 00 00 00 39 F2 
157916832,477,04 10 07 CF 00 05 0A 00 33 00 03 00 00 00 00 08 50 EE 69 
157953580,478,04 10 07 CF 00 05 31 14 
158497268,479,01 03 0B B9 00 15 57 C4 01 03 2A 00 00 00 00 00 00 00 00 00 00 00 00 00 00 00 00 00 00 00 00 00 00 00 00 00 0A 03 06 00 00 00 04 00 19 00 0B 00 1B 00 0D 00 2C 32 F5 
158896940,480,02 03 0B B9 00 15 57 F7 
159775164,481,00 10 07 D1 00 5A B4 57 46 32 33 31 32 32 37 30 37 30 36 00 00 00 00 04 04 07 D1 00 01 00 01 02 26 00 00 00 0A 03 05 00 09 00 09 00 00 00 00 00 00 00 A5 01 F2 02 29 00 00 01 0A 00 9F FF E5 00 00 00 00 00 9E FF E3 00 00 00 00 00 00 00 00 00 00 00 00 00 00 00 00 00 00 00 00 00 B5 00 BF 00 00 00 00 02 BF 02 BE 00 00 00 00 00 00 00 00 00 00 00 00 00 00 00 00 00 00 00 00 02 2B 00 00 00 00 00 00 02 23 00 00 00 00 00 00 00 00 00 00 00 00 00 00 00 00 00 00 00 00 00 00 00 E7 00 C3 00 00 00 00 00 00 00 00 00 00 00 00 00 00 00 00 00 00 00 00 00 3C 00 3B 00 00 00 A5 6D 54 
160276660,482,00 10 08 2B 00 5A B4 57 46 32 33 31 32 32 37 30 37 30 36 00 00 00 00 04 04 08 2B 00 00 00 00 FF E3 FF E4 00 25 00 00 5A A5 00 00 00 00 00 00 00 8C 00 29 00 87 00 25 00 00 00 00 00 00 00 00 00 00 00 00 00 00 01 FE 00 00 00 00 00 00 00 33 00 33 00 7F 00 41 02 2B 02 0B 00 00 00 00 00 33 00 33 00 7D 00 3F 02 2A 02 0B 00 00 00 00 01 FE 00 0B 01 9F 01 48 00 00 00 00 00 00 00 00 00 00 00 00 00 86 00 00 00 10 00 00 00 00 00 00 00 00 00 00 00 00 00 00 00 00 00 00 01 03 00 00 00 00 64 00 00 00 00 00 00 00 00 00 00 00 00 00 00 00 00 00 00 00 00 00 00 00 00 00 00 00 32 D8 
160401448,483,05 03 03 F3 00 0E 35 FD 
160504524,484,05 03 1C 00 01 01 FE 00 00 00 00 00 10 00 86 01 FE 00 0B 00 00 00 00 5A A5 01 9F 00 EB 01 48 3E C0 
160902968,485,06 03 03 F3 00 0E 35 CE 
161404464,486,03 03 08 33 00 16 37 89 
161526776,487,03 03 2C 02 0B 00 00 00 00 00 33 00 6E 00 91 01 A2 00 40 00 7F 02 2C 00 00 00 78 00 00 00 00 09 00 00 14 58 21 00 00 00 00 00 02 00 00 00 00 70 14 
161928868,488,03 10 07 CF 00 05 0A 00 33 00 03 00 00 00 00 08 50 5C 58 
161966136,489,03 10 07 CF 00 05 30 A3 
162407480,490,04 03 08 33 00 16 36 3E 
162529060,491,04 03 2C 02 0B 00 00 00 00 00 33 00 6E 00 91 01 A1 00 3F 00 7D 02 2A 00 00 00 76 00 00 00 00 09 00 00 14 58 21 00 00 00 00 00 02 00 00 00 00 68 33 
162931856,492,04 10 07 CF 00 05 0A 00 33 00 03 00 00 00 00 08 50 EE 69 
162968836,493,04 10 07 CF 00 05 31 14 
163410468,494,01 03 0B B9 00 15 57 C4 
163911964,495,02 03 0B B9 00 15 57 F7 
164790188,496,00 10 07 D1 00 5A B4 57 46 32 33 31 32 32 37 30 37 30 36 00 00 00 00 04 04 07 D1 00 01 00 01 02 26 00 00 00 0A 03 05 00 09 00 09 00 00 00 00 00 00 00 A5 01 F2 02 29 00 00 01 09 00 A0 FF E5 00 00 00 00 00 9E FF E3 00 00 00 00 00 00 00 00 00 00 00 00 00 00 00 00 00 00 00 00 00 B5 00 BF 00 00 00 00 02 BF 02 BE 00 00 00 00 00 00 00 00 00 00 00 00 00 00 00 00 00 00 00 00 02 2B 00 00 00 00 00 00 02 23 00 00 00 00 00 00 00 00 00 00 00 00 00 00 00 00 00 00 00 00 00 00 00 E7 00 C0 00 00 00 00 00 00 00 00 00 00 00 00 00 00 00 00 00 00 00 00 00 3C 00 3B 00 00 00 A5 79 45 
165291684,497,00 10 08 2B 00 5A B4 57 46 32 33 31 32 32 37 30 37 30 36 00 00 00 00 04 04 08 2B 00 00 00 00 FF E3 FF E4 00 25 00 00 5A A5 00 00 00 00 00 00 00 8C 00 29 00 86 00 25 00 00 00 00 00 00 00 00 00 00 00 00 00 00 01 FE 00 00 00 00 00 00 00 33 00 33 00 7F 00 41 02 2C 02 0B 00 00 00 00 00 33 00 33 00 7D 00 3F 02 2A 02 0B 00 00 00 00 01 FE 00 0B 01 9F 01 48 00 00 00 00 00 00 00 00 00 00 00 00 00 86 00 00 00 10 00 00 00 00 00 00 00 00 00 00 00 00 00 00 00 00 00 00 01 03 00 00 00 00 64 00 00 00 00 00 00 00 00 00 00 00 00 00 00 00 00 00 00 00 00 00 00 00 00 00 00 00 DA 44 
165416472,498,05 03 03 F3 00 0E 35 FD 
165519472,499,05 03 1C 00 01 01 FE 00 00 00 00 00 10 00 86 01 FE 00 0B 00 00 00 00 5A A5 01 9F 00 EA 01 48 6F 00 
165917992,500,06 03 03 F3 00 0E 35 CE 
166419488,501,03 03 08 33 00 16 37 89 
166542032,502,03 03 2C 02 0B 00 00 00 00 00 33 00 6E 00 91 01 A2 00 40 00 7F 02 2C 00 00 00 78 00 00 00 00 09 00 00 14 58 21 00 00 00 00 00 02 00 00 00 00 70 14 
166943892,503,03 10 07 CF 00 05 0A 00 33 00 03 00 00 00 00 08 50 5C 58 
166980248,504,03 10 07 CF 00 05 30 A3 
167422504,505,04 03 08 33 00 16 36 3E 
167544476,506,04 03 2C 02 0B 00 00 00 00 00 33 00 6E 00 91 01 A1 00 3F 00 7D 02 2A 00 00 00 76 00 00 00 00 09 00 00 14 58 21 00 00 00 00 00 02 00 00 00 00 68 33 
167946880,507,04 10 07 CF 00 05 0A 00 33 00 03 00 00 00 00 08 50 EE 69 
167984072,508,04 10 07 CF 00 05 31 14 
168527368,509,01 03 0B B9 00 15 57 C4 01 03 2A 00 00 00 00 00 00 00 00 00 00 00 00 00 00 00 00 00 00 00 00 00 00 00 00 00 0A 03 06 00 00 00 04 00 19 00 0B 00 1B 00 0D 00 2C 32 F5 
168926988,510,02 03 0B B9 00 15 57 F7 
169805216,511,00 10 07 D1 00 5A B4 57 46 32 33 31 32 32 37 30 37 30 36 00 00 00 00 04 04 07 D1 00 01 00 01 02 26 00 00 00 0A 03 05 00 09 00 09 00 00 00 00 00 00 00 A5 01 F2 02 29 00 00 01 09 00 A0 FF E5 00 00 00 00 00 9D FF E3 00 00 00 00 00 00 00 00 00 00 00 00 00 00 00 00 00 00 00 00 00 B5 00 BF 00 00 00 00 02 BF 02 BE 00 00 00 00 00 00 00 00 00 00 00 00 00 00 00 00 00 00 00 00 02 2B 00 00 00 00 00 00 02 23 00 00 00 00 00 00 00 00 00 00 00 00 00 00 00 00 00 00 00 00 00 00 00 E7 00 C0 00 00 00 00 00 00 00 00 00 00 00 00 00 00 00 00 00 00 00 00 00 3C 00 3B 00 00 00 A5 4A 46 
170306708,512,00 10 08 2B 00 5A B4 57 46 32 33 31 32 32 37 30 37 30 36 00 00 00 00 04 04 08 2B 00 00 00 00 FF E3 FF E4 00 25 00 00 5A A5 00 00 00 00 00 00 00 8B 00 29 00 85 00 25 00 00 00 00 00 00 00 00 00 00 00 00 00 00 01 FE 00 00 00 00 00 00 00 33 00 33 00 7F 00 41 02 2C 02 0B 00 00 00 00 00 33 00 33 00 7D 00 3F 02 2A 02 0B 00 00 00 00 02 03 00 0B 01 9F 01 48 00 00 00 00 00 00 00 00 00 00 00 00 00 86 00 00 00 10 00 00 00 00 00 00 00 00 00 00 00 00 00 00 00 00 00 00 01 03 00 00 00 00 64 00 00 00 00 00 00 00 00 00 00 00 00 00 00 00 00 00 00 00 00 00 00 00 00 00 00 00 EC 8B 
170431496,513,05 03 03 F3 00 0E 35 FD 
170534860,514,05 03 1C 00 01 01 FE 00 00 00 00 00 10 00 86 01 FE 00 0B 00 00 00 00 5A A5 01 9F 00 EB 01 48 3E C0 
170943416,515,05 10 03 F3 00 02 04 00 01 01 FE 6C EE 
170983684,516,05 10 03 F3 00 02 B0 3B 
171434512,517,06 03 03 F3 00 0E 35 CE 
171936008,518,03 03 08 33 00 16 37 89 
172058368,519,03 03 2C 02 0B 00 00 00 00 00 33 00 6E 00 91 01 A1 00 40 00 7F 02 2B 00 00 00 78 00 00 00 00 09 00 00 14 58 21 00 00 00 00 00 02 00 00 00 00 6A 7B 
172460412,520,03 10 07 CF 00 05 0A 00 33 00 03 00 00 00 00 08 50 5C 58 
172497628,521,03 10 07 CF 00 05 30 A3 
172939024,522,04 03 08 33 00 16 36 3E 
173060944,523,04 03 2C 02 0B 00 00 00 00 00 33 00 6E 00 91 01 A0 00 3F 00 7D 02 2A 00 00 00 76 00 00 00 00 09 00 00 14 58 21 00 00 00 00 00 02 00 00 00 00 F9 F3 
173463424,524,04 10 07 CF 00 05 0A 00 33 00 03 00 00 00 00 08 50 EE 69 
173500696,525,04 10 07 CF 00 05 31 14 
174043916,526,01 03 0B B9 00 15 57 C4 01 03 2A 00 00 00 00 00 00 00 00 00 00 00 00 00 00 00 00 00 00 00 00 00 00 00 00 00 0A 03 06 00 00 00 04 00 19 00 0B 00 1B 00 0D 00 2C 32 F5 
174443540,527,02 03 0B B9 00 15 57 F7 
175321732,528,00 10 07 D1 00 5A B4 57 46 32 33 31 32 32 37 30 37 30 36 00 00 00 00 04 04 07 D1 00 01 00 01 02 26 00 00 00 0A 03 05 00 09 00 09 00 00 00 00 00 00 00 A5 01 F2 02 29 00 00 01 09 00 A1 FF E5 00 00 00 00 00 9D FF E3 00 00 00 00 00 00 00 00 00 00 00 00 00 00 00 00 00 00 00 00 00 B5 00 BF 00 00 00 00 02 BF 02 BE 00 00 00 00 00 00 00 00 00 00 00 00 00 00 00 00 00 00 00 00 02 2B 00 00 00 00 00 00 02 23 00 00 00 00 00 00 00 00 00 00 00 00 00 00 00 00 00 00 00 00 00 00 00 F1 00 C0 00 00 00 00 00 00 00 00 00 00 00 00 00 00 00 00 00 00 00 00 00 3C 00 3B 00 00 00 A5 FB 8C 
175823228,529,00 10 08 2B 00 5A B4 57 46 32 33 31 32 32 37 30 37 30 36 00 00 00 00 04 04 08 2B 00 00 00 00 FF E3 FF E4 00 25 00 00 5A A5 00 00 00 00 00 00 00 8A 00 52 00 85 00 25 00 00 00 00 00 00 00 00 00 00 00 00 00 00 01 FE 00 00 00 00 00 00 00 33 00 33 00 7F 00 41 02 2B 02 0B 00 00 00 00 00 33 00 33 00 7D 00 3F 02 2A 02 0B 00 00 00 00 02 03 00 0B 01 9F 01 48 00 00 00 00 00 00 00 00 00 00 00 00 00 86 00 00 00 10 00 00 00 00 00 00 00 00 00 00 00 00 00 00 00 00 00 00 01 03 00 00 00 00 64 00 00 00 00 00 00 00 00 00 00 00 00 00 00 00 00 00 00 00 00 00 00 00 00 00 00 00 65 37 
175948040,530,05 03 03 F3 00 0E 35 FD 
176051196,531,05 03 1C 00 01 01 FE 00 00 00 00 00 10 00 86 01 FE 00 0B 00 00 00 00 5A A5 01 9F 00 EA 01 48 6F 00 
176459936,532,05 10 03 F3 00 02 04 00 01 02 03 AD 9F 
176500644,533,05 10 03 F3 00 02 B0 3B 
176951032,534,06 03 03 F3 00 0E 35 CE 
177452524,535,03 03 08 33 00 16 37 89 
177574628,536,03 03 2C 02 0B 00 00 00 00 00 33 00 6E 00 91 01 A1 00 40 00 7F 02 2B 00 00 00 78 00 00 00 00 09 00 00 14 58 21 00 00 00 00 00 02 00 00 00 00 6A 7B 
177976928,537,03 10 07 CF 00 05 0A 00 33 00 03 00 00 00 00 08 50 5C 58 
178013964,538,03 10 07 CF 00 05 30 A3 
178455540,539,04 03 08 33 00 16 36 3E 
178577564,540,04 03 2C 02 0B 00 00 00 00 00 33 00 6E 00 91 01 A0 00 3F 00 7D 02 2A 00 00 00 76 00 00 00 00 09 00 00 14 58 21 00 00 00 00 00 02 00 00 00 00 F9 F3 
178979916,541,04 10 07 CF 00 05 0A 00 33 00 03 00 00 00 00 08 50 EE 69 
179016248,542,04 10 07 CF 00 05 31 14 
179458532,543,01 03 0B B9 00 15 57 C4 
179584100,544,01 03 2A 00 00 00 00 00 00 00 00 00 00 00 00 00 00 00 00 00 00 00 00 00 00 00 00 00 0A 03 06 00 00 00 04 00 19 00 0B 00 1B 00 0D 00 2C 32 F5 
179960052,545,02 03 0B B9 00 15 57 F7 
180838252,546,00 10 07 D1 00 5A B4 57 46 32 33 31 32 32 37 30 37 30 36 00 00 00 00 04 04 07 D1 00 01 00 01 02 26 00 00 00 0A 03 05 00 09 00 09 00 00 00 00 00 00 00 A5 01 F2 02 28 00 00 01 09 00 A0 FF E5 00 00 00 00 00 9D FF E3 00 00 00 00 00 00 00 00 00 00 00 00 00 00 00 00 00 00 00 00 00 B5 00 BF 00 00 00 00 02 BF 02 BE 00 00 00 00 00 00 00 00 00 00 00 00 00 00 00 00 00 00 00 00 02 2B 00 00 00 00 00 00 02 23 00 00 00 00 00 00 00 00 00 00 00 00 00 00 00 00 00 00 00 00 00 00 00 F1 00 C0 00 00 00 00 00 00 00 00 00 00 00 00 00 00 00 00 00 00 00 00 00 3C 00 3B 00 00 00 A5 38 1C 
181339748,547,00 10 08 2B 00 5A B4 57 46 32 33 31 32 32 37 30 37 30 36 00 00 00 00 04 04 08 2B 00 00 00 00 FF E3 FF E4 00 25 00 00 5A A5 00 00 00 00 00 00 00 8A 00 52 00 87 00 25 00 00 00 00 00 00 00 00 00 00 00 00 00 00 01 FE 00 00 00 00 00 00 00 33 00 33 00 7F 00 41 02 2B 02 0B 00 00 00 00 00 33 00 33 00 7D 00 3F 02 2A 02 0B 00 00 00 00 02 03 00 0B 01 9F 01 48 00 00 00 00 00 00 00 00 00 00 00 00 00 86 00 00 00 10 00 00 00 00 00 00 00 00 00 00 00 00 00 00 00 00 00 00 01 03 00 00 00 00 64 00 00 00 00 00 00 00 00 00 00 00 00 00 00 00 00 00 00 00 00 00 00 00 00 00 00 00 7F 8F 
181464536,548,05 03 03 F3 00 0E 35 FD 
181567532,549,05 03 1C 00 01 02 03 00 00 00 00 00 10 00 86 01 FE 00 0B 00 00 00 00 5A A5 01 9F 00 EA 01 48 C9 16 
181966056,550,06 03 03 F3 00 0E 35 CE 
182467548,551,03 03 08 33 00 16 37 89 
182589888,552,03 03 2C 02 0B 00 00 00 00 00 33 00 6E 00 91 01 A1 00 40 00 7F 02 2B 00 00 00 78 00 00 00 00 09 00 00 14 58 21 00 00 00 00 00 02 00 00 00 00 6A 7B 
182991952,553,03 10 07 CF 00 05 0A 00 33 00 03 00 00 00 00 08 50 5C 58 
183029196,554,03 10 07 CF 00 05 30 A3 
183470564,555,04 03 08 33 00 16 36 3E 
183592744,556,04 03 2C 02 0B 00 00 00 00 00 33 00 6E 00 91 01 A0 00 3F 00 7D 02 29 00 00 00 76 00 00 00 00 09 00 00 14 58 21 00 00 00 00 00 02 00 00 00 00 06 B8 
183994940,557,04 10 07 CF 00 05 0A 00 33 00 03 00 00 00 00 08 50 EE 69 
184031456,558,04 10 07 CF 00 05 31 14 
184575484,559,01 03 0B B9 00 15 57 C4 01 03 2A 00 00 00 00 00 00 00 00 00 00 00 00 00 00 00 00 00 00 00 00 00 00 00 00 00 0A 03 06 00 00 00 04 00 19 00 0B 00 1B 00 0D 00 2C 32 F5 
184975076,560,02 03 0B B9 00 15 57 F7 
185853276,561,00 10 07 D1 00 5A B4 57 46 32 33 31 32 32 37 30 37 30 36 00 00 00 00 04 04 07 D1 00 01 00 01 02 26 00 00 00 0A 03 05 00 09 00 09 00 00 00 00 00 00 00 A5 01 F2 02 28 00 00 01 09 00 A0 FF E5 00 00 00 00 00 9D FF E3 00 00 00 00 00 00 00 00 00 00 00 00 00 00 00 00 00 00 00 00 00 B6 00 BF 00 00 00 00 02 BF 02 BE 00 00 00 00 00 00 00 00 00 00 00 00 00 00 00 00 00 00 00 00 02 2B 00 00 00 00 00 00 02 23 00 00 00 00 00 00 00 00 00 00 00 00 00 00 00 00 00 00 00 00 00 00 00 F1 00 C0 00 00 00 00 00 00 00 00 00 00 00 00 00 00 00 00 00 00 00 00 00 3C 00 3B 00 00 00 A5 54 A8 
186354776,562,00 10 08 2B 00 5A B4 57 46 32 33 31 32 32 37 30 37 30 36 00 00 00 00 04 04 08 2B 00 00 00 00 FF E3 FF E4 00 25 00 00 5A A5 00 00 00 00 00 00 00 8B 00 52 00 87 00 25 00 00 00 00 00 00 00 00 00 00 00 00 00 00 01 FE 00 00 00 00 00 00 00 33 00 33 00 7F 00 41 02 2B 02 0B 00 00 00 00 00 33 00 33 00 7D 00 3F 02 29 02 0B 00 00 00 00 02 03 00 0B 01 9F 01 48 00 00 00 00 00 00 00 00 00 00 00 00 00 86 00 00 00 10 00 00 00 00 00 00 00 00 00 00 00 00 00 00 00 00 00 00 01 03 00 00 00 00 64 00 00 00 00 00 00 00 00 00 00 00 00 00 00 00 00 00 00 00 00 00 00 00 00 00 00 00 02 78 
186479556,563,05 03 03 F3 00 0E 35 FD 
186582508,564,05 03 1C 00 01 02 03 00 00 00 00 00 10 00 86 01 FE 00 0B 00 00 00 00 5A A5 01 9F 00 EA 01 48 C9 16 
186981080,565,06 03 03 F3 00 0E 35 CE 
187482572,566,03 03 08 33 00 16 37 89 
187605068,567,03 03 2C 02 0B 00 00 00 00 00 33 00 6E 00 91 01 A1 00 40 00 7F 02 2B 00 00 00 78 00 00 00 00 09 00 00 14 58 21 00 00 00 00 00 02 00 00 00 00 6A 7B 
188006976,568,03 10 07 CF 00 05 0A 00 33 00 03 00 00 00 00 08 50 5C 58 
188043396,569,03 10 07 CF 00 05 30 A3 
188485588,570,04 03 08 33 00 16 36 3E 
188607952,571,04 03 2C 02 0B 00 00 00 00 00 33 00 6E 00 91 01 A0 00 3F 00 7D 02 29 00 00 00 76 00 00 00 00 09 00 00 14 58 21 00 00 00 00 00 02 00 00 00 00 06 B8 
189009968,572,04 10 07 CF 00 05 0A 00 33 00 03 00 00 00 00 08 50 EE 69 
189046664,573,04 10 07 CF 00 05 31 14 
189590640,574,01 03 0B B9 00 15 57 C4 01 03 2A 00 00 00 00 00 00 00 00 00 00 00 00 00 00 00 00 00 00 00 00 00 00 00 00 00 0A 03 06 00 00 00 04 00 19 00 0B 00 1B 00 0D 00 2C 32 F5 
189990100,575,02 03 0B B9 00 15 57 F7 
190868300,576,00 10 07 D1 00 5A B4 57 46 32 33 31 32 32 37 30 37 30 36 00 00 00 00 04 04 07 D1 00 01 00 01 02 26 00 00 00 0A 03 05 00 09 00 09 00 00 00 00 00 00 00 A5 01 F2 02 28 00 00 01 09 00 A0 FF E5 00 00 00 00 00 9D FF E3 00 00 00 00 00 00 00 00 00 00 00 00 00 00 00 00 00 00 00 00 00 B6 00 BF 00 00 00 00 02 BE 02 BE 00 00 00 00 00 00 00 00 00 00 00 00 00 00 00 00 00 00 00 00 02 2B 00 00 00 00 00 00 02 23 00 00 00 00 00 00 00 00 00 00 00 00 00 00 00 00 00 00 00 00 00 00 00 F1 00 C0 00 00 00 00 00 00 00 00 00 00 00 00 00 00 00 00 00 00 00 00 00 3C 00 3B 00 00 00 A5 3A 2A 
191369796,577,00 10 08 2B 00 5A B4 57 46 32 33 31 32 32 37 30 37 30 36 00 00 00 00 04 04 08 2B 00 00 00 00 FF E3 FF E4 00 25 00 00 5A A5 00 00 00 00 00 00 00 8B 00 52 00 87 00 25 00 00 00 00 00 00 00 00 00 00 00 00 00 00 01 FE 00 00 00 00 00 00 00 33 00 33 00 7F 00 41 02 2B 02 0B 00 00 00 00 00 33 00 33 00 7D 00 3F 02 29 02 0B 00 00 00 00 02 03 00 0B 01 9F 01 48 00 00 00 00 00 00 00 00 00 00 00 00 00 86 00 00 00 10 00 00 00 00 00 00 00 00 00 00 00 00 00 00 00 00 00 00 01 03 00 00 00 00 64 00 00 00 00 00 00 00 00 00 00 00 00 00 00 00 00 00 00 00 00 00 00 00 00 00 00 00 02 78 
191494584,578,05 03 03 F3 00 0E 35 FD 
191597872,579,05 03 1C 00 01 02 03 00 00 00 00 00 10 00 86 01 FE 00 0B 00 00 00 00 5A A5 01 9F 00 EA 01 48 C9 16 
191996104,580,06 03 03 F3 00 0E 35 CE 
192497600,581,03 03 08 33 00 16 37 89 
192620328,582,03 03 2C 02 0B 00 00 00 00 00 33 00 6E 00 91 01 A1 00 40 00 7F 02 2B 00 00 00 78 00 00 00 00 09 00 00 14 58 21 00 00 00 00 00 02 00 00 00 00 6A 7B 
193022004,583,03 10 07 CF 00 05 0A 00 33 00 03 00 00 00 00 08 50 5C 58 
193058568,584,03 10 07 CF 00 05 30 A3 
193500616,585,04 03 08 33 00 16 36 3E 
193622324,586,04 03 2C 02 0B 00 00 00 00 00 33 00 6E 00 91 01 A1 00 3F 00 7D 02 2A 00 00 00 76 00 00 00 00 09 00 00 14 58 21 00 00 00 00 00 02 00 00 00 00 68 33 
194024992,587,04 10 07 CF 00 05 0A 00 33 00 03 00 00 00 00 08 50 EE 69 
194061924,588,04 10 07 CF 00 05 31 14 
194503604,589,01 03 0B B9 00 15 57 C4 
194605740,590,01 03 2A 00 00 00 00 00 00 00 00 00 00 00 00 00 00 00 00 00 00 00 00 00 00 00 00 00 0A 03 06 00 00 00 04 00 19 00 0B 00 1B 00 0D 00 2D F3 35 
195005124,591,02 03 0B B9 00 15 57 F7 
195883324,592,00 10 07 D1 00 5A B4 57 46 32 33 31 32 32 37 30 37 30 36 00 00 00 00 04 04 07 D1 00 01 00 01 02 26 00 00 00 0A 03 05 00 09 00 09 00 00 00 00 00 00 00 A5 01 F2 02 28 00 00 01 09 00 A1 FF E5 00 00 00 00 00 9D FF E3 00 00 00 00 00 00 00 00 00 00 00 00 00 00 00 00 00 00 00 00 00 B6 00 C0 00 00 00 00 02 BE 02 BE 00 00 00 00 00 00 00 00 00 00 00 00 00 00 00 00 00 00 00 00 02 2B 00 00 00 00 00 00 02 23 00 00 00 00 00 00 00 00 00 00 00 00 00 00 00 00 00 00 00 00 00 00 00 F1 00 C0 00 00 00 00 00 00 00 00 00 00 00 00 00 00 00 00 00 00 00 00 00 3C 00 3B 00 00 00 A5 65 0D 
196384820,593,00 10 08 2B 00 5A B4 57 46 32 33 31 32 32 37 30 37 30 36 00 00 00 00 04 04 08 2B 00 00 00 00 FF E3 FF E4 00 25 00 00 5A A5 00 00 00 00 00 00 00 8D 00 52 00 87 00 25 00 00 00 00 00 00 00 00 00 00 00 00 00 00 01 FE 00 00 00 00 00 00 00 33 00 33 00 7F 00 41 02 2B 02 0B 00 00 00 00 00 33 00 33 00 7D 00 3F 02 2A 02 0B 00 00 00 00 02 03 00 0B 01 9F 01 48 00 00 00 00 00 00 00 00 00 00 00 00 00 86 00 00 00 10 00 00 00 00 00 00 00 00 00 00 00 00 00 00 00 00 00 00 01 03 00 00 00 00 64 00 00 00 00 00 00 00 00 00 00 00 00 00 00 00 00 00 00 00 00 00 00 00 00 00 00 00 34 77 
196509608,594,05 03 03 F3 00 0E 35 FD 
196612816,595,05 03 1C 00 01 02 03 00 00 00 00 00 10 00 86 01 FE 00 0B 00 00 00 00 5A A5 01 9F 00 EA 01 49 08 D6 
197011104,596,06 03 03 F3 00 0E 35 CE 
197512624,597,03 03 08 33 00 16 37 89 
197634492,598,03 03 2C 02 0B 00 00 00 00 00 33 00 6E 00 91 01 A1 00 40 00 7F 02 2B 00 00 00 78 00 00 00 00 09 00 00 14 58 21 00 00 00 00 00 02 00 00 00 00 6A 7B 
198037000,599,03 10 07 CF 00 05 0A 00 33 00 03 00 00 00 00 08 50 5C 58 
198073828,600,03 10 07 CF 00 05 30 A3 
198515612,601,04 03 08 33 00 16 36 3E 
198637352,602,04 03 2C 02 0B 00 00 00 00 00 33 00 6E 00 91 01 A0 00 3F 00 7D 02 29 00 00 00 76 00 00 00 00 09 00 00 14 58 21 00 00 00 00 00 02 00 00 00 00 06 B8 
199040020,603,04 10 07 CF 00 05 0A 00 33 00 03 00 00 00 00 08 50 EE 69 
199077128,604,04 10 07 CF 00 05 31 14 
199620636,605,01 03 0B B9 00 15 57 C4 01 03 2A 00 00 00 00 00 00 00 00 00 00 00 00 00 00 00 00 00 00 00 00 00 00 00 00 00 0A 03 06 00 00 00 04 00 19 00 0B 00 1B 00 0D 00 2D F3 35 
200020124,606,02 03 0B B9 00 15 57 F7 
200898324,607,00 10 07 D1 00 5A B4 57 46 32 33 31 32 32 37 30 37 30 36 00 00 00 00 04 04 07 D1 00 01 00 01 02 26 00 00 00 0A 03 05 00 09 00 09 00 00 00 00 00 00 00 A5 01 F2 02 28 00 00 01 09 00 A1 FF E5 00 00 00 00 00 9D FF E3 00 00 00 00 00 00 00 00 00 00 00 00 00 00 00 00 00 00 00 00 00 B6 00 C0 00 00 00 00 02 BE 02 BE 00 00 00 00 00 00 00 00 00 00 00 00 00 00 00 00 00 00 00 00 02 2B 00 00 00 00 00 00 02 23 00 00 00 00 00 00 00 00 00 00 00 00 00 00 00 00 00 00 00 00 00 00 00 F1 00 C0 00 00 00 00 00 00 00 00 00 00 00 00 00 00 00 00 00 00 00 00 00 3D 00 3B 00 00 00 A5 75 CD 
201399844,608,00 10 08 2B 00 5A B4 57 46 32 33 31 32 32 37 30 37 30 36 00 00 00 00 04 04 08 2B 00 00 00 00 FF E3 FF E4 00 25 00 00 5A A5 00 00 00 00 00 00 00 91 00 52 00 88 00 25 00 00 00 00 00 00 00 00 00 00 00 00 00 00 01 FE 00 00 00 00 00 00 00 33 00 33 00 7F 00 41 02 2B 02 0B 00 00 00 00 00 33 00 33 00 7D 00 3F 02 29 02 0B 00 00 00 00 02 03 00 0B 01 9F 01 49 00 00 00 00 00 00 00 00 00 00 00 00 00 86 00 00 00 10 00 00 00 00 00 00 00 00 00 00 00 00 00 00 00 00 00 00 01 03 00 00 00 00 64 00 00 00 00 00 00 00 00 00 00 00 00 00 00 00 00 00 00 00 00 00 00 00 00 00 00 00 28 97 
201524632,609,05 03 03 F3 00 0E 35 FD 
201627552,610,05 03 1C 00 01 02 03 00 00 00 00 00 10 00 86 01 FE 00 0B 00 00 00 00 5A A5 01 9D 00 EA 01 48 B0 D6 
202026128,611,06 03 03 F3 00 0E 35 CE 
202527648,612,03 03 08 33 00 16 37 89 
202649672,613,03 03 2C 02 0B 00 00 00 00 00 33 00 6E 00 91 01 A1 00 40 00 7F 02 2B 00 00 00 78 00 00 00 00 09 00 00 14 58 21 00 00 00 00 00 02 00 00 00 00 6A 7B 
203052024,614,03 10 07 CF 00 05 0A 00 33 00 03 00 00 00 00 08 50 5C 58 
203088984,615,03 10 07 CF 00 05 30 A3 
203530636,616,04 03 08 33 00 16 36 3E 
203652740,617,04 03 2C 02 0B 00 00 00 00 00 33 00 6E 00 91 01 A0 00 3F 00 7D 02 2A 00 00 00 76 00 00 00 00 09 00 00 14 58 21 00 00 00 00 00 02 00 00 00 00 F9 F3 
204055040,618,04 10 07 CF 00 05 0A 00 33 00 03 00 00 00 00 08 50 EE 69 
204092336,619,04 10 07 CF 00 05 31 14 
204635504,620,01 03 0B B9 00 15 57 C4 01 03 2A 00 00 00 00 00 00 00 00 00 00 00 00 00 00 00 00 00 00 00 00 00 00 00 00 00 0A 03 06 00 00 00 04 00 19 00 0B 00 1B 00 0D 00 2D F3 35 
205035144,621,02 03 0B B9 00 15 57 F7 
205913348,622,00 10 07 D1 00 5A B4 57 46 32 33 31 32 32 37 30 37 30 36 00 00 00 00 04 04 07 D1 00 01 00 01 02 26 00 00 00 0A 03 05 00 09 00 09 00 00 00 00 00 00 00 A5 01 F2 02 28 00 00 01 09 00 A2 FF E5 00 00 00 00 00 9E FF E3 00 00 00 00 00 00 00 00 00 00 00 00 00 00 00 00 00 00 00 00 00 B5 00 C0 00 00 00 00 02 BE 02 BF 00 00 00 00 00 00 00 00 00 00 00 00 00 00 00 00 00 00 00 00 02 2B 00 00 00 00 00 00 02 23 00 00 00 00 00 00 00 00 00 00 00 00 00 00 00 00 00 00 00 00 00 00 00 EF 00 C0 00 00 00 00 00 00 00 00 00 00 00 00 00 00 00 00 00 00 00 00 00 3E 00 3C 00 00 00 A5 A9 8D 
206414876,623,00 10 08 2B 00 5A B4 57 46 32 33 31 32 32 37 30 37 30 36 00 00 00 00 04 04 08 2B 00 00 00 00 FF E3 FF E4 00 25 00 00 5A A5 00 00 00 00 00 00 00 92 00 27 00 88 00 25 00 00 00 00 00 00 00 00 00 00 00 00 00 00 01 FE 00 00 00 00 00 00 00 33 00 33 00 7F 00 41 02 2B 02 0B 00 00 00 00 00 33 00 33 00 7D 00 3F 02 2A 02 0B 00 00 00 00 01 FE 00 0B 01 9D 01 48 00 00 00 00 00 00 00 00 00 00 00 00 00 86 00 00 00 10 00 00 00 00 00 00 00 00 00 00 00 00 00 00 00 00 00 00 01 03 00 00 00 00 64 00 00 00 00 00 00 00 00 00 00 00 00 00 00 00 00 00 00 00 00 00 00 00 00 00 00 00 44 EC 
206539656,624,05 03 03 F3 00 0E 35 FD 
206643124,625,05 03 1C 00 01 02 03 00 00 00 00 00 10 00 85 01 FE 00 0B 00 00 00 00 5A A5 01 9D 00 EB 01 48 11 E6 
207051552,626,05 10 03 F3 00 02 04 00 01 01 FE 6C EE 
207092364,627,05 10 03 F3 00 02 B0 3B 
207542648,628,06 03 03 F3 00 0E 35 CE 
208044144,629,03 03 08 33 00 16 37 89 
208166012,630,03 03 2C 02 0B 00 00 00 00 00 33 00 6E 00 91 01 A1 00 40 00 7F 02 2B 00 00 00 78 00 00 00 00 09 00 00 14 58 21 00 00 00 00 00 02 00 00 00 00 6A 7B 
208568544,631,03 10 07 CF 00 05 0A 00 33 00 03 00 00 00 00 08 50 5C 58 
208605320,632,03 10 07 CF 00 05 30 A3 
209047156,633,04 03 08 33 00 16 36 3E 
209169208,634,04 03 2C 02 0B 00 00 00 00 00 33 00 6E 00 91 01 A0 00 3F 00 7D 02 29 00 00 00 76 00 00 00 00 09 00 00 14 58 21 00 00 00 00 00 02 00 00 00 00 06 B8 
209571560,635,04 10 07 CF 00 05 0A 00 33 00 03 00 00 00 00 08 50 EE 69 
209607916,636,04 10 07 CF 00 05 31 14 
210152076,637,01 03 0B B9 00 15 57 C4 01 03 2A 00 00 00 00 00 00 00 00 00 00 00 00 00 00 00 00 00 00 00 00 00 00 00 00 00 0A 03 06 00 00 00 04 00 19 00 0B 00 1B 00 0D 00 2D F3 35 
210551664,638,02 03 0B B9 00 15 57 F7 
211429868,639,00 10 07 D1 00 5A B4 57 46 32 33 31 32 32 37 30 37 30 36 00 00 00 00 04 04 07 D1 00 01 00 01 02 26 00 00 00 0A 03 05 00 09 00 09 00 00 00 00 00 00 00 A5 01 F2 02 28 00 00 01 09 00 A3 FF E5 00 00 00 00 00 9E FF E3 00 00 00 00 00 00 00 00 00 00 00 00 00 00 00 00 00 00 00 00 00 B5 00 C1 00 00 00 00 02 BE 02 BF 00 00 00 00 00 00 00 00 00 00 00 00 00 00 00 00 00 00 00 00 02 2B 00 00 00 00 00 00 02 23 00 00 00 00 00 00 00 00 00 00 00 00 00 00 00 00 00 00 00 00 00 00 00 EF 00 CA 00 00 00 00 00 00 00 00 00 00 00 00 00 00 00 00 00 00 00 00 00 3D 00 3C 00 00 00 A5 BA 10 
211931360,640,00 10 08 2B 00 5A B4 57 46 32 33 31 32 32 37 30 37 30 36 00 00 00 00 04 04 08 2B 00 00 00 00 FF E3 FF E4 00 25 00 00 5A A5 00 00 00 00 00 00 00 91 00 27 00 88 00 53 00 00 00 00 00 00 00 00 00 00 00 00 00 00 01 FE 00 00 00 00 00 00 00 33 00 33 00 7F 00 41 02 2B 02 0B 00 00 00 00 00 33 00 33 00 7D 00 3F 02 29 02 0B 00 00 00 00 01 FE 00 0B 01 9D 01 48 00 00 00 00 00 00 00 00 00 00 00 00 00 85 00 00 00 10 00 00 00 00 00 00 00 00 00 00 00 00 00 00 00 00 00 00 01 03 00 00 00 00 64 00 00 00 00 00 00 00 00 00 00 00 00 00 00 00 00 00 00 00 00 00 00 00 00 00 00 00 55 84 
212056176,641,05 03 03 F3 00 0E 35 FD 
212159460,642,05 03 1C 00 01 01 FE 00 00 00 00 00 10 00 86 01 FE 00 0B 00 00 00 00 5A A5 01 9D 00 EB 01 48 47 00 
212557672,643,06 03 03 F3 00 0E 35 CE 
213059164,644,03 03 08 33 00 16 37 89 
213181240,645,03 03 2C 02 0B 00 00 00 00 00 33 00 6E 00 91 01 A1 00 3F 00 7F 02 2B 00 00 00 78 00 00 00 00 09 00 00 14 58 21 00 00 00 00 00 02 00 00 00 00 2A 24 
213583568,646,03 10 07 CF 00 05 0A 00 33 00 03 00 00 00 00 08 50 5C 58 
213620552,647,03 10 07 CF 00 05 30 A3 
214062152,648,04 03 08 33 00 16 36 3E 
214184360,649,04 03 2C 02 0B 00 00 00 00 00 33 00 6E 00 91 01 A0 00 3F 00 7D 02 29 00 00 00 76 00 00 00 00 09 00 00 14 58 21 00 00 00 00 00 02 00 00 00 00 06 B8 
214586556,650,04 10 07 CF 00 05 0A 00 33 00 03 00 00 00 00 08 50 EE 69 
214623124,651,04 10 07 CF 00 05 31 14 
215065172,652,01 03 0B B9 00 15 57 C4 
215566664,653,02 03 0B B9 00 15 57 F7 
216444892,654,00 10 07 D1 00 5A B4 57 46 32 33 31 32 32 37 30 37 30 36 00 00 00 00 04 04 07 D1 00 01 00 01 02 26 00 00 00 0A 03 05 00 09 00 09 00 00 00 00 00 00 00 A5 01 F2 02 28 00 00 01 0A 00 A4 FF E5 00 00 00 00 00 9E FF E3 00 00 00 00 00 00 00 00 00 00 00 00 00 00 00 00 00 00 00 00 00 B5 00 C1 00 00 00 00 02 BE 02 BF 00 00 00 00 00 00 00 00 00 00 00 00 00 00 00 00 00 00 00 00 02 2B 00 00 00 00 00 00 02 23 00 00 00 00 00 00 00 00 00 00 00 00 00 00 00 00 00 00 00 00 00 00 00 EF 00 CA 00 00 00 00 00 00 00 00 00 00 00 00 00 00 00 00 00 00 00 00 00 3D 00 3C 00 00 00 A5 6E 12 
216946384,655,00 10 08 2B 00 5A B4 57 46 32 33 31 32 32 37 30 37 30 36 00 00 00 00 04 04 08 2B 00 00 00 00 FF E3 FF E4 00 25 00 00 5A A5 00 00 00 00 00 00 00 92 00 27 00 89 00 53 00 00 00 00 00 00 00 00 00 00 00 00 00 00 01 FE 00 00 00 00 00 00 00 33 00 33 00 7F 00 41 02 2B 02 0B 00 00 00 00 00 33 00 33 00 7D 00 3F 02 29 02 0B 00 00 00 00 01 FE 00 0B 01 9D 01 48 00 00 00 00 00 00 00 00 00 00 00 00 00 86 00 00 00 10 00 00 00 00 00 00 00 00 00 00 00 00 00 00 00 00 00 00 01 03 00 00 00 00 64 00 00 00 00 00 00 00 00 00 00 00 00 00 00 00 00 00 00 00 00 00 00 00 00 00 00 00 5C 9E 
217071172,656,05 03 03 F3 00 0E 35 FD 
217174200,657,05 03 1C 00 01 01 FE 00 00 00 00 00 10 00 84 01 FE 00 0B 00 00 00 00 5A A5 01 9B 00 EA 01 48 3F A0 
217572668,658,06 03 03 F3 00 0E 35 CE 
218074164,659,03 03 08 33 00 16 37 89 
218196448,660,03 03 2C 02 0B 00 00 00 00 00 33 00 6E 00 91 01 A1 00 40 00 7F 02 2B 00 00 00 78 00 00 00 00 09 00 00 14 58 21 00 00 00 00 00 02 00 00 00 00 6A 7B 
218598568,661,03 10 07 CF 00 05 0A 00 33 00 03 00 00 00 00 08 50 5C 58 
218635756,662,03 10 07 CF 00 05 30 A3 
219077180,663,04 03 08 33 00 16 36 3E 
219199540,664,04 03 2C 02 0B 00 00 00 00 00 33 00 6E 00 91 01 A0 00 3F 00 7D 02 29 00 00 00 76 00 00 00 00 09 00 00 14 58 21 00 00 00 00 00 02 00 00 00 00 06 B8 
219601556,665,04 10 07 CF 00 05 0A 00 33 00 03 00 00 00 00 08 50 EE 69 
219638304,666,04 10 07 CF 00 05 31 14 
220182072,667,01 03 0B B9 00 15 57 C4 01 03 2A 00 00 00 00 00 00 00 00 00 00 00 00 00 00 00 00 00 00 00 00 00 00 00 00 00 0A 03 06 00 00 00 04 00 19 00 0B 00 1B 00 0D 00 2D F3 35 
220581660,668,02 03 0B B9 00 15 57 F7 
221459864,669,00 10 07 D1 00 5A B4 57 46 32 33 31 32 32 37 30 37 30 36 00 00 00 00 04 04 07 D1 00 01 00 01 02 26 00 00 00 0A 03 05 00 09 00 09 00 00 00 00 00 00 00 A5 01 F1 02 28 00 00 01 0B 00 A5 FF E5 00 00 00 00 00 9E FF E3 00 00 00 00 00 00 00 00 00 00 00 00 00 00 00 00 00 00 00 00 00 B6 00 C1 00 00 00 00 02 BE 02 BF 00 00 00 00 00 00 00 00 00 00 00 00 00 00 00 00 00 00 00 00 02 2B 00 00 00 00 00 00 02 23 00 00 00 00 00 00 00 00 00 00 00 00 00 00 00 00 00 00 00 00 00 00 00 EF 00 CA 00 00 00 00 00 00 00 00 00 00 00 00 00 00 00 00 00 00 00 00 00 3D 00 3C 00 00 00 A5 98 82 
221961360,670,00 10 08 2B 00 5A B4 57 46 32 33 31 32 32 37 30 37 30 36 00 00 00 00 04 04 08 2B 00 00 00 00 FF E3 FF E4 00 25 00 00 5A A5 00 00 00 00 00 00 00 8F 00 27 00 89 00 53 00 00 00 00 00 00 00 00 00 00 00 00 00 00 01 FE 00 00 00 00 00 00 00 33 00 33 00 7F 00 41 02 2B 02 0B 00 00 00 00 00 33 00 33 00 7D 00 3F 02 29 02 0B 00 00 00 00 01 FE 00 0B 01 9B 01 48 00 00 00 00 00 00 00 00 00 00 00 00 00 84 00 00 00 10 00 00 00 00 00 00 00 00 00 00 00 00 00 00 00 00 00 00 01 03 00 00 00 00 64 00 00 00 00 00 00 00 00 00 00 00 00 00 00 00 00 00 00 00 00 00 00 00 00 00 00 00 23 E0 
222086172,671,05 03 03 F3 00 0E 35 FD 
222189536,672,05 03 1C 00 01 01 FE 00 00 00 00 00 10 00 85 01 FE 00 0B 00 00 00 00 5A A5 01 99 00 E9 01 48 E7 F0 
222598068,673,05 10 03 F3 00 02 04 00 01 01 F9 2D 2C 
222638360,674,05 10 03 F3 00 02 B0 3B 
223089164,675,06 03 03 F3 00 0E 35 CE 
223590656,676,03 03 08 33 00 16 37 89 
223712732,677,03 03 2C 02 0B 00 00 00 00 00 33 00 6E 00 91 01 A1 00 40 00 7F 02 2B 00 00 00 78 00 00 00 00 09 00 00 14 58 21 00 00 00 00 00 02 00 00 00 00 6A 7B 
224115060,678,03 10 07 CF 00 05 0A 00 33 00 03 00 00 00 00 08 50 5C 58 
224152044,679,03 10 07 CF 00 05 30 A3 
224593672,680,04 03 08 33 00 16 36 3E 
224715124,681,04 03 2C 02 0B 00 00 00 00 00 33 00 6E 00 91 01 A0 00 3F 00 7D 02 29 00 00 00 76 00 00 00 00 09 00 00 14 58 21 00 00 00 00 00 02 00 00 00 00 06 B8 
225118048,682,04 10 07 CF 00 05 0A 00 33 00 03 00 00 00 00 08 50 EE 69 
225154900,683,04 10 07 CF 00 05 31 14 
225596660,684,01 03 0B B9 00 15 57 C4 
225704248,685,01 03 2A 00 00 00 00 00 00 00 00 00 00 00 00 00 00 00 00 00 00 00 00 00 00 00 00 00 0A 03 06 00 00 00 04 00 19 00 0B 00 1B 00 0D 00 2D F3 35 
226098156,686,02 03 0B B9 00 15 57 F7 
226976356,687,00 10 07 D1 00 5A B4 57 46 32 33 31 32 32 37 30 37 30 36 00 00 00 00 04 04 07 D1 00 01 00 01 02 26 00 00 00 0A 03 05 00 09 00 09 00 00 00 00 00 00 00 A5 01 F1 02 28 00 00 01 0C 00 A5 FF E5 00 00 00 00 00 9F FF E3 00 00 00 00 00 00 00 00 00 00 00 00 00 00 00 00 00 00 00 00 00 B7 00 C1 00 00 00 00 02 BD 02 BF 00 00 00 00 00 00 00 00 00 00 00 00 00 00 00 00 00 00 00 00 02 2B 00 00 00 00 00 00 02 23 00 00 00 00 00 00 00 00 00 00 00 00 00 00 00 00 00 00 00 00 00 00 00 EF 00 CA 00 00 00 00 00 00 00 00 00 00 00 00 00 00 00 00 00 00 00 00 00 3D 00 3C 00 00 00 A5 88 28 
227477852,688,00 10 08 2B 00 5A B4 57 46 32 33 31 32 32 37 30 37 30 36 00 00 00 00 04 04 08 2B 00 00 00 00 FF E3 FF E4 00 25 00 00 5A A5 00 00 00 00 00 00 00 8E 00 27 00 89 00 53 00 00 00 00 00 00 00 00 00 00 00 00 00 00 01 FE 00 00 00 00 00 00 00 33 00 33 00 7F 00 41 02 2B 02 0B 00 00 00 00 00 33 00 33 00 7D 00 3F 02 29 02 0B 00 00 00 00 01 F9 00 0B 01 99 01 48 00 00 00 00 00 00 00 00 00 00 00 00 00 85 00 00 00 10 00 00 00 00 00 00 00 00 00 00 00 00 00 00 00 00 00 00 01 03 00 00 00 00 64 00 00 00 00 00 00 00 00 00 00 00 00 00 00 00 00 00 00 00 00 00 00 00 00 00 00 00 BC B9 
227602668,689,05 03 03 F3 00 0E 35 FD 
227705848,690,05 03 1C 00 01 01 F9 00 00 00 00 00 10 00 81 01 F8 00 0B 00 00 00 00 5A A5 01 99 00 EA 01 48 79 5D 
228104160,691,06 03 03 F3 00 0E 35 CE 
228605656,692,03 03 08 33 00 16 37 89 
228727888,693,03 03 2C 02 0B 00 00 00 00 00 33 00 6E 00 91 01 A1 00 3F 00 7F 02 2B 00 00 00 78 00 00 00 00 09 00 00 14 58 21 00 00 00 00 00 02 00 00 00 00 2A 24 
229130032,694,03 10 07 CF 00 05 0A 00 33 00 03 00 00 00 00 08 50 5C 58 
229167196,695,03 10 07 CF 00 05 30 A3 
229608644,696,04 03 08 33 00 16 36 3E 
229730512,697,04 03 2C 02 0B 00 00 00 00 00 33 00 6E 00 91 01 A0 00 3E 00 7D 02 29 00 00 00 76 00 00 00 00 09 00 00 14 58 21 00 00 00 00 00 02 00 00 00 00 C6 B9 
230133048,698,04 10 07 CF 00 05 0A 00 33 00 03 00 00 00 00 08 50 EE 69 
230170084,699,04 10 07 CF 00 05 31 14 
230611632,700,01 03 0B B9 00 15 57 C4 
231113156,701,02 03 0B B9 00 15 57 F7 
231991360,702,00 10 07 D1 00 5A B4 57 46 32 33 31 32 32 37 30 37 30 36 00 00 00 00 04 04 07 D1 00 01 00 01 02 26 00 00 00 0A 03 05 00 09 00 09 00 00 00 00 00 00 00 A5 01 F1 02 28 00 00 01 0C 00 A5 FF E5 00 00 00 00 00 9F FF E3 00 00 00 00 00 00 00 00 00 00 00 00 00 00 00 00 00 00 00 00 00 B8 00 C1 00 00 00 00 02 BD 02 BF 00 00 00 00 00 00 00 00 00 00 00 00 00 00 00 00 00 00 00 00 02 2B 00 00 00 00 00 00 02 23 00 00 00 00 00 00 00 00 00 00 00 00 00 00 00 00 00 00 00 00 00 00 00 EF 00 CA 00 00 00 00 00 00 00 00 00 00 00 00 00 00 00 00 00 00 00 00 00 3C 00 3B 00 00 00 A5 F7 CD 
232492852,703,00 10 08 2B 00 5A B4 57 46 32 33 31 32 32 37 30 37 30 36 00 00 00 00 04 04 08 2B 00 00 00 00 FF E3 FF E4 00 25 00 00 5A A5 00 00 00 00 00 00 00 89 00 27 00 86 00 53 00 00 00 00 00 00 00 00 00 00 00 00 00 00 01 F8 00 00 00 00 00 00 00 33 00 33 00 7F 00 41 02 2B 02 0B 00 00 00 00 00 33 00 33 00 7D 00 3F 02 29 02 0B 00 00 00 00 01 F9 00 0B 01 99 01 48 00 00 00 00 00 00 00 00 00 00 00 00 00 81 00 00 00 10 00 00 00 00 00 00 00 00 00 00 00 00 00 00 00 00 00 00 01 03 00 00 00 00 64 00 00 00 00 00 00 00 00 00 00 00 00 00 00 00 00 00 00 00 00 00 00 00 00 00 00 00 CF 71 
232617636,704,05 03 03 F3 00 0E 35 FD 
232720768,705,05 03 1C 00 01 01 F9 00 00 00 00 00 10 00 82 01 F8 00 0B 00 00 00 00 5A A5 01 99 00 EA 01 48 89 AD 
233119132,706,06 03 03 F3 00 0E 35 CE 
233620652,707,03 03 08 33 00 16 37 89 
233743120,708,03 03 2C 02 0B 00 00 00 00 00 33 00 6E 00 91 01 A1 00 3F 00 7F 02 2B 00 00 00 78 00 00 00 00 09 00 00 14 58 21 00 00 00 00 00 02 00 00 00 00 2A 24 
234145032,709,03 10 07 CF 00 05 0A 00 33 00 03 00 00 00 00 08 50 5C 58 
234181360,710,03 10 07 CF 00 05 30 A3 
234623640,711,04 03 08 33 00 16 36 3E 
234745484,712,04 03 2C 02 0B 00 00 00 00 00 33 00 6E 00 91 01 A0 00 3E 00 7D 02 29 00 00 00 76 00 00 00 00 09 00 00 14 58 21 00 00 00 00 00 02 00 00 00 00 C6 B9 
235148044,713,04 10 07 CF 00 05 0A 00 33 00 03 00 00 00 00 08 50 EE 69 
235185264,714,04 10 07 CF 00 05 31 14 
235728536,715,01 03 0B B9 00 15 57 C4 01 03 2A 00 00 00 00 00 00 00 00 00 00 00 00 00 00 00 00 00 00 00 00 00 00 00 00 00 0A 03 06 00 00 00 04 00 19 00 0B 00 1B 00 0D 00 2D F3 35 
236128128,716,02 03 0B B9 00 15 57 F7 
237006328,717,00 10 07 D1 00 5A B4 57 46 32 33 31 32 32 37 30 37 30 36 00 00 00 00 04 04 07 D1 00 01 00 01 02 26 00 00 00 0A 03 05 00 09 00 09 00 00 00 00 00 00 00 A5 01 F1 02 28 00 00 01 0C 00 A4 FF E5 00 00 00 00 00 9F FF E3 00 00 00 00 00 00 00 00 00 00 00 00 00 00 00 00 00 00 00 00 00 BA 00 C1 00 00 00 00 02 BD 02 BF 00 00 00 00 00 00 00 00 00 00 00 00 00 00 00 00 00 00 00 00 02 2B 00 00 00 00 00 00 02 23 00 00 00 00 00 00 00 00 00 00 00 00 00 00 00 00 00 00 00 00 00 00 00 EF 00 CA 00 00 00 00 00 00 00 00 00 00 00 00 00 00 00 00 00 00 00 00 00 3C 00 3B 00 00 00 A5 6E D5 
237507848,718,00 10 08 2B 00 5A B4 57 46 32 33 31 32 32 37 30 37 30 36 00 00 00 00 04 04 08 2B 00 00 00 00 FF E3 FF E4 00 25 00 00 5A A5 00 00 00 00 00 00 00 88 00 27 00 85 00 3A 00 00 00 00 00 00 00 00 00 00 00 00 00 00 01 F8 00 00 00 00 00 00 00 33 00 33 00 7F 00 41 02 2B 02 0B 00 00 00 00 00 33 00 33 00 7D 00 3F 02 29 02 0B 00 00 00 00 01 F9 00 0B 01 99 01 48 00 00 00 00 00 00 00 00 00 00 00 00 00 82 00 00 00 10 00 00 00 00 00 00 00 00 00 00 00 00 00 00 00 00 00 00 01 03 00 00 00 00 64 00 00 00 00 00 00 00 00 00 00 00 00 00 00 00 00 00 00 00 00 00 00 00 00 00 00 00 37 B8 
237632644,719,05 03 03 F3 00 0E 35 FD 
237736312,720,05 03 1C 00 01 01 F9 00 00 00 00 00 10 00 82 01 F8 00 0B 00 00 00 00 5A A5 01 99 00 EA 01 48 89 AD 
238134132,721,06 03 03 F3 00 0E 35 CE 
238635624,722,03 03 08 33 00 16 37 89 
238758276,723,03 03 2C 02 0B 00 00 00 00 00 33 00 6E 00 91 01 A1 00 3F 00 7F 02 2B 00 00 00 78 00 00 00 00 09 00 00 14 58 21 00 00 00 00 00 02 00 00 00 00 2A 24 
239160028,724,03 10 07 CF 00 05 0A 00 33 00 03 00 00 00 00 08 50 5C 58 
239196540,725,03 10 07 CF 00 05 30 A3 
239638640,726,04 03 08 33 00 16 36 3E 
