UART Data
4020784,1,00 
4042600,2,FF 
4255980,3,04 10 07 CF 00 05 0A 00 00 00 00 00 00 00 00 08 50 9D 98 
4292700,4,04 10 07 CF 00 05 31 14 
4836444,5,01 03 0B B9 00 15 57 C4 01 03 2A 00 00 00 00 00 00 00 00 00 00 00 00 00 00 00 00 00 00 00 00 00 00 00 00 00 0A 03 06 00 00 00 04 00 19 00 0A 00 17 00 0F 00 1D 52 20 
5236084,6,02 03 0B B9 00 15 57 F7 
6114260,7,00 10 07 D1 00 5A B4 57 46 32 33 31 32 32 37 30 37 30 36 00 00 00 00 04 04 07 D1 00 00 00 01 01 5E 00 00 00 0A 03 05 00 09 00 09 00 00 00 00 00 00 00 A5 00 CE 00 D2 00 00 00 CB 00 CD FF E5 00 00 00 00 00 D0 FF E3 00 00 00 00 00 00 00 00 00 00 00 00 00 00 00 00 00 00 00 00 00 D2 00 D1 00 00 00 00 00 D0 00 D0 00 00 00 00 00 00 00 00 00 00 00 00 00 00 00 00 00 00 00 00 00 CC 00 00 00 00 00 00 00 CB 00 00 00 00 00 00 00 00 00 00 00 00 00 00 00 00 00 00 00 00 00 00 00 FA 00 FA 00 00 00 00 00 00 00 00 00 00 00 00 00 00 00 00 00 00 00 00 00 48 00 48 00 00 00 A5 D3 18 
6615732,8,00 10 08 2B 00 5A B4 57 46 32 33 31 32 32 37 30 37 30 36 00 00 00 00 04 04 08 2B 00 00 00 00 FF E3 FF E5 00 00 00 00 5A A5 00 00 00 00 00 00 00 C6 00 00 00 C6 00 00 00 00 00 00 00 00 00 00 00 00 00 00 00 00 00 00 00 00 00 00 00 00 00 00 00 00 00 00 00 17 00 13 01 08 00 00 00 00 00 00 00 00 00 00 00 15 00 13 01 08 00 00 00 00 00 00 00 00 00 F8 01 4C 00 00 00 00 00 00 00 00 00 00 00 00 00 00 00 00 00 10 00 00 00 00 00 00 00 00 00 00 00 00 00 00 00 00 00 00 00 00 00 00 00 00 66 00 00 00 00 00 00 00 00 00 00 00 00 00 00 00 00 00 00 00 00 00 00 00 00 00 00 00 25 68 
6740520,9,05 03 03 F3 00 0E 35 FD 
6843284,10,05 03 1C 00 00 00 00 00 00 00 00 00 10 00 00 00 00 00 00 00 00 00 00 5A A5 00 F8 00 EC 01 4C C9 A9 
7242012,11,06 03 03 F3 00 0E 35 CE 
7743532,12,03 03 08 33 00 16 37 89 
7865924,13,03 03 2C 01 08 00 00 00 00 00 00 00 6E 00 91 01 A4 00 00 00 00 00 13 00 00 00 4E 00 00 00 00 09 00 00 14 58 21 00 00 00 00 00 02 00 00 00 00 F6 C0 
8267936,14,03 10 07 CF 00 05 0A 00 00 00 00 00 00 00 00 08 50 2F A9 
8305204,15,03 10 07 CF 00 05 30 A3 
8746524,16,04 03 08 33 00 16 36 3E 
8868260,17,04 03 2C 01 08 00 00 00 00 00 00 00 6E 00 91 01 A3 00 00 00 00 00 13 00 00 00 4C 00 00 00 00 09 00 00 14 58 21 00 00 00 00 00 02 00 00 00 00 22 64 
9270952,18,04 10 07 CF 00 05 0A 00 00 00 00 00 00 00 00 08 50 9D 98 
9307884,19,04 10 07 CF 00 05 31 14 
9851444,20,01 03 0B B9 00 15 57 C4 01 03 2A 00 00 00 00 00 00 00 00 00 00 00 00 00 00 00 00 00 00 00 00 00 00 00 00 00 0A 03 06 00 00 00 04 00 19 00 0A 00 17 00 0F 00 1D 52 20 
10251060,21,02 03 0B B9 00 15 57 F7 
11129312,22,00 10 07 D1 00 5A B4 57 46 32 33 31 32 32 37 30 37 30 36 00 00 00 00 04 04 07 D1 00 00 00 01 01 5E 00 00 00 0A 03 05 00 09 00 09 00 00 00 00 00 00 00 A5 00 CE 00 D2 00 00 00 CB 00 CD FF E5 00 00 00 00 00 D0 FF E3 00 00 00 00 00 00 00 00 00 00 00 00 00 00 00 00 00 00 00 00 00 D2 00 D1 00 00 00 00 00 D0 00 D0 00 00 00 00 00 00 00 00 00 00 00 00 00 00 00 00 00 00 00 00 00 CC 00 00 00 00 00 00 00 CC 00 00 00 00 00 00 00 00 00 00 00 00 00 00 00 00 00 00 00 00 00 00 00 FA 00 FA 00 00 00 00 00 00 00 00 00 00 00 00 00 00 00 00 00 00 00 00 00 48 00 48 00 00 00 A5 87 FA 
11630808,23,00 10 08 2B 00 5A B4 57 46 32 33 31 32 32 37 30 37 30 36 00 00 00 00 04 04 08 2B 00 00 00 00 FF E3 FF E5 00 00 00 00 5A A5 00 00 00 00 00 00 00 C6 00 00 00 C6 00 00 00 00 00 00 00 00 00 00 00 00 00 00 00 00 00 00 00 00 00 00 00 00 00 00 00 00 00 00 00 17 00 13 01 08 00 00 00 00 00 00 00 00 00 00 00 15 00 13 01 08 00 00 00 00 00 00 00 00 00 F8 01 4C 00 00 00 00 00 00 00 00 00 00 00 00 00 00 00 00 00 10 00 00 00 00 00 00 00 00 00 00 00 00 00 00 00 00 00 00 00 00 00 00 00 00 66 00 00 00 00 00 00 00 00 00 00 00 00 00 00 00 00 00 00 00 00 00 00 00 00 00 00 00 25 68 
11755620,24,05 03 03 F3 00 0E 35 FD 
11858308,25,05 03 1C 00 00 00 00 00 00 00 00 00 10 00 00 00 00 00 00 00 00 00 00 5A A5 00 F8 00 ED 01 4C 98 69 
12257116,26,06 03 03 F3 00 0E 35 CE 
12758636,27,03 03 08 33 00 16 37 89 
12881260,28,03 03 2C 01 08 00 00 00 00 00 00 00 6E 00 91 01 A4 00 00 00 00 00 13 00 00 00 4E 00 00 00 00 09 00 00 14 58 21 00 00 00 00 00 02 00 00 00 00 F6 C0 
13283064,29,03 10 07 CF 00 05 0A 00 00 00 00 00 00 00 00 08 50 2F A9 
13319528,30,03 10 07 CF 00 05 30 A3 
13761676,31,04 03 08 33 00 16 36 3E 
13883652,32,04 03 2C 01 08 00 00 00 00 00 00 00 6E 00 91 01 A3 00 00 00 00 00 13 00 00 00 4D 00 00 00 00 09 00 00 14 58 21 00 00 00 00 00 02 00 00 00 00 32 B5 
14286108,33,04 10 07 CF 00 05 0A 00 00 00 00 00 00 00 00 08 50 9D 98 
14323248,34,04 10 07 CF 00 05 31 14 
14866440,35,01 03 0B B9 00 15 57 C4 01 03 2A 00 00 00 00 00 00 00 00 00 00 00 00 00 00 00 00 00 00 00 00 00 00 00 00 00 0A 03 06 00 00 00 04 00 19 00 0A 00 17 00 0F 00 1D 52 20 
15266240,36,02 03 0B B9 00 15 57 F7 
16144496,37,00 10 07 D1 00 5A B4 57 46 32 33 31 32 32 37 30 37 30 36 00 00 00 00 04 04 07 D1 00 00 00 01 01 5E 00 00 00 0A 03 05 00 09 00 09 00 00 00 00 00 00 00 A5 00 CE 00 D2 00 00 00 CB 00 CD FF E5 00 00 00 00 00 D0 FF E4 00 00 00 00 00 00 00 00 00 00 00 00 00 00 00 00 00 00 00 00 00 D2 00 D1 00 00 00 00 00 D0 00 D0 00 00 00 00 00 00 00 00 00 00 00 00 00 00 00 00 00 00 00 00 00 CC 00 00 00 00 00 00 00 CB 00 00 00 00 00 00 00 00 00 00 00 00 00 00 00 00 00 00 00 00 00 00 00 FA 00 FA 00 00 00 00 00 00 00 00 00 00 00 00 00 00 00 00 00 00 00 00 00 48 00 48 00 00 00 A5 99 93 
16645988,38,00 10 08 2B 00 5A B4 57 46 32 33 31 32 32 37 30 37 30 36 00 00 00 00 04 04 08 2B 00 00 00 00 FF E3 FF E5 00 00 00 00 5A A5 00 00 00 00 00 00 00 C6 00 00 00 C6 00 00 00 00 00 00 00 00 00 00 00 00 00 00 00 00 00 00 00 00 00 00 00 00 00 00 00 00 00 00 00 17 00 13 01 08 00 00 00 00 00 00 00 00 00 00 00 16 00 13 01 08 00 00 00 00 00 00 00 00 00 F8 01 4C 00 00 00 00 00 00 00 00 00 00 00 00 00 00 00 00 00 10 00 00 00 00 00 00 00 00 00 00 00 00 00 00 00 00 00 00 00 00 00 00 00 00 66 00 00 00 00 00 00 00 00 00 00 00 00 00 00 00 00 00 00 00 00 00 00 00 00 00 00 00 94 AE 
16770804,39,05 03 03 F3 00 0E 35 FD 
16873852,40,05 03 1C 00 00 00 00 00 00 00 00 00 10 00 00 00 00 00 00 00 00 00 00 5A A5 00 F8 00 ED 01 4C 98 69 
17272296,41,06 03 03 F3 00 0E 35 CE 
17773840,42,03 03 08 33 00 16 37 89 
17895608,43,03 03 2C 01 08 00 00 00 00 00 00 00 6E 00 91 01 A4 00 00 00 00 00 13 00 00 00 4E 00 00 00 00 09 00 00 14 58 21 00 00 00 00 00 02 00 00 00 00 F6 C0 
18298248,44,03 10 07 CF 00 05 0A 00 00 00 00 00 00 00 00 08 50 2F A9 
18334916,45,03 10 07 CF 00 05 30 A3 
18776860,46,04 03 08 33 00 16 36 3E 
18899072,47,04 03 2C 01 08 00 00 00 00 00 00 00 6E 00 91 01 A3 00 00 00 00 00 13 00 00 00 4C 00 00 00 00 09 00 00 14 58 21 00 00 00 00 00 02 00 00 00 00 22 64 
19301288,48,04 10 07 CF 00 05 0A 00 00 00 00 00 00 00 00 08 50 9D 98 
19337644,49,04 10 07 CF 00 05 31 14 
19881648,50,01 03 0B B9 00 15 57 C4 01 03 2A 00 00 00 00 00 00 00 00 00 00 00 00 00 00 00 00 00 00 00 00 00 00 00 00 00 0A 03 06 00 00 00 04 00 19 00 0A 00 17 00 0F 00 1E 12 21 
20281420,51,02 03 0B B9 00 15 57 F7 
21159672,52,00 10 07 D1 00 5A B4 57 46 32 33 31 32 32 37 30 37 30 36 00 00 00 00 04 04 07 D1 00 00 00 01 01 5E 00 00 00 0A 03 05 00 09 00 09 00 00 00 00 00 00 00 A5 00 CE 00 D2 00 00 00 CB 00 CD FF E5 00 00 00 00 00 D0 FF E3 00 00 00 00 00 00 00 00 00 00 00 00 00 00 00 00 00 00 00 00 00 D2 00 D1 00 00 00 00 00 D0 00 D0 00 00 00 00 00 00 00 00 00 00 00 00 00 00 00 00 00 00 00 00 00 CC 00 00 00 00 00 00 00 CB 00 00 00 00 00 00 00 00 00 00 00 00 00 00 00 00 00 00 00 00 00 00 00 FA 00 FA 00 00 00 00 00 00 00 00 00 00 00 00 00 00 00 00 00 00 00 00 00 49 00 48 00 00 00 A5 C3 D8 
21661196,53,00 10 08 2B 00 5A B4 57 46 32 33 31 32 32 37 30 37 30 36 00 00 00 00 04 04 08 2B 00 00 00 00 FF E3 FF E5 00 00 00 00 5A A5 00 00 00 00 00 00 00 C7 00 00 00 C6 00 00 00 00 00 00 00 00 00 00 00 00 00 00 00 00 00 00 00 00 00 00 00 00 00 00 00 00 00 00 00 17 00 13 01 08 00 00 00 00 00 00 00 00 00 00 00 15 00 13 01 08 00 00 00 00 00 00 00 00 00 F8 01 4C 00 00 00 00 00 00 00 00 00 00 00 00 00 00 00 00 00 10 00 00 00 00 00 00 00 00 00 00 00 00 00 00 00 00 00 00 00 00 00 00 00 00 66 00 00 00 00 00 00 00 00 00 00 00 00 00 00 00 00 00 00 00 00 00 00 00 00 00 00 00 E7 D6 
21785980,54,05 03 03 F3 00 0E 35 FD 
21888772,55,05 03 1C 00 00 00 00 00 00 00 00 00 10 00 00 00 00 00 00 00 00 00 00 5A A5 00 F8 00 ED 01 4C 98 69 
22287504,56,06 03 03 F3 00 0E 35 CE 
22789024,57,03 03 08 33 00 16 37 89 
22911020,58,03 03 2C 01 08 00 00 00 00 00 00 00 6E 00 91 01 A4 00 00 00 00 00 13 00 00 00 4E 00 00 00 00 09 00 00 14 58 21 00 00 00 00 00 02 00 00 00 00 F6 C0 
23313452,59,03 10 07 CF 00 05 0A 00 00 00 00 00 00 00 00 08 50 2F A9 
23350360,60,03 10 07 CF 00 05 30 A3 
23792064,61,04 03 08 33 00 16 36 3E 
23914512,62,04 03 2C 01 08 00 00 00 00 00 00 00 6E 00 91 01 A3 00 00 00 00 00 13 00 00 00 4C 00 00 00 00 09 00 00 14 58 21 00 00 00 00 00 02 00 00 00 00 22 64 
24316496,63,04 10 07 CF 00 05 0A 00 00 00 00 00 00 00 00 08 50 9D 98 
24353060,64,04 10 07 CF 00 05 31 14 
24896828,65,01 03 0B B9 00 15 57 C4 01 03 2A 00 00 00 00 00 00 00 00 00 00 00 00 00 00 00 00 00 00 00 00 00 00 00 00 00 0A 03 06 00 00 00 04 00 19 00 0A 00 17 00 0F 00 1E 12 21 
25296628,66,02 03 0B B9 00 15 57 F7 
26174880,67,00 10 07 D1 00 5A B4 57 46 32 33 31 32 32 37 30 37 30 36 00 00 00 00 04 04 07 D1 00 00 00 01 01 5E 00 00 00 0A 03 05 00 09 00 09 00 00 00 00 00 00 00 A5 00 CE 00 D2 00 00 00 CB 00 CD FF E5 00 00 00 00 00 D0 FF E3 00 00 00 00 00 00 00 00 00 00 00 00 00 00 00 00 00 00 00 00 00 D2 00 D1 00 00 00 00 00 D0 00 D0 00 00 00 00 00 00 00 00 00 00 00 00 00 00 00 00 00 00 00 00 00 CC 00 00 00 00 00 00 00 CB 00 00 00 00 00 00 00 00 00 00 00 00 00 00 00 00 00 00 00 00 00 00 00 FA 00 FA 00 00 00 00 00 00 00 00 00 00 00 00 00 00 00 00 00 00 00 00 00 48 00 48 00 00 00 A5 D3 18 
26676404,68,00 10 08 2B 00 5A B4 57 46 32 33 31 32 32 37 30 37 30 36 00 00 00 00 04 04 08 2B 00 00 00 00 FF E3 FF E5 00 00 00 00 5A A5 00 00 00 00 00 00 00 C6 00 00 00 C6 00 00 00 00 00 00 00 00 00 00 00 00 00 00 00 00 00 00 00 00 00 00 00 00 00 00 00 00 00 00 00 17 00 13 01 08 00 00 00 00 00 00 00 00 00 00 00 15 00 13 01 08 00 00 00 00 00 00 00 00 00 F8 01 4C 00 00 00 00 00 00 00 00 00 00 00 00 00 00 00 00 00 10 00 00 00 00 00 00 00 00 00 00 00 00 00 00 00 00 00 00 00 00 00 00 00 00 66 00 00 00 00 00 00 00 00 00 00 00 00 00 00 00 00 00 00 00 00 00 00 00 00 00 00 00 25 68 
26801192,69,05 03 03 F3 00 0E 35 FD 
26903900,70,05 03 1C 00 00 00 00 00 00 00 00 00 10 00 00 00 00 00 00 00 00 00 00 5A A5 00 F8 00 EC 01 4C C9 A9 
27302708,71,06 03 03 F3 00 0E 35 CE 
27804232,72,03 03 08 33 00 16 37 89 
27926440,73,03 03 2C 01 08 00 00 00 00 00 00 00 6E 00 91 01 A4 00 00 00 00 00 13 00 00 00 4E 00 00 00 00 09 00 00 14 58 21 00 00 00 00 00 02 00 00 00 00 F6 C0 
28328660,74,03 10 07 CF 00 05 0A 00 00 00 00 00 00 00 00 08 50 2F A9 
28365748,75,03 10 07 CF 00 05 30 A3 
28807272,76,04 03 08 33 00 16 36 3E 
28929740,77,04 03 2C 01 08 00 00 00 00 00 00 00 6E 00 91 01 A3 00 00 00 00 00 13 00 00 00 4C 00 00 00 00 09 00 00 14 58 21 00 00 00 00 00 02 00 00 00 00 22 64 
29331700,78,04 10 07 CF 00 05 0A 00 00 00 00 00 00 00 00 08 50 9D 98 
29368476,79,04 10 07 CF 00 05 31 14 
29912200,80,01 03 0B B9 00 15 57 C4 01 03 2A 00 00 00 00 00 00 00 00 00 00 00 00 00 00 00 00 00 00 00 00 00 00 00 00 00 0A 03 06 00 00 00 04 00 19 00 0A 00 17 00 0F 00 1E 12 21 
30311836,81,02 03 0B B9 00 15 57 F7 
31190088,82,00 10 07 D1 00 5A B4 57 46 32 33 31 32 32 37 30 37 30 36 00 00 00 00 04 04 07 D1 00 00 00 01 01 5E 00 00 00 0A 03 05 00 09 00 09 00 00 00 00 00 00 00 A5 00 CE 00 D2 00 00 00 CB 00 CD FF E5 00 00 00 00 00 D0 FF E3 00 00 00 00 00 00 00 00 00 00 00 00 00 00 00 00 00 00 00 00 00 D2 00 D1 00 00 00 00 00 D0 00 D0 00 00 00 00 00 00 00 00 00 00 00 00 00 00 00 00 00 00 00 00 00 CC 00 00 00 00 00 00 00 CB 00 00 00 00 00 00 00 00 00 00 00 00 00 00 00 00 00 00 00 00 00 00 00 FA 00 FA 00 00 00 00 00 00 00 00 00 00 00 00 00 00 00 00 00 00 00 00 00 49 00 48 00 00 00 A5 C3 D8 
31691608,83,00 10 08 2B 00 5A B4 57 46 32 33 31 32 32 37 30 37 30 36 00 00 00 00 04 04 08 2B 00 00 00 00 FF E3 FF E5 00 00 00 00 5A A5 00 00 00 00 00 00 00 C7 00 00 00 C6 00 00 00 00 00 00 00 00 00 00 00 00 00 00 00 00 00 00 00 00 00 00 00 00 00 00 00 00 00 00 00 17 00 13 01 08 00 00 00 00 00 00 00 00 00 00 00 15 00 13 01 08 00 00 00 00 00 00 00 00 00 F8 01 4C 00 00 00 00 00 00 00 00 00 00 00 00 00 00 00 00 00 10 00 00 00 00 00 00 00 00 00 00 00 00 00 00 00 00 00 00 00 00 00 00 00 00 66 00 00 00 00 00 00 00 00 00 00 00 00 00 00 00 00 00 00 00 00 00 00 00 00 00 00 00 E7 D6 
31816396,84,05 03 03 F3 00 0E 35 FD 
31919472,85,05 03 1C 00 00 00 00 00 00 00 00 00 10 00 00 00 00 00 00 00 00 00 00 5A A5 00 F8 00 ED 01 4C 98 69 
32317916,86,06 03 03 F3 00 0E 35 CE 
32819436,87,03 03 08 33 00 16 37 89 
32941880,88,03 03 2C 01 08 00 00 00 00 00 00 00 6E 00 91 01 A4 00 00 00 00 00 13 00 00 00 4E 00 00 00 00 09 00 00 14 58 21 00 00 00 00 00 02 00 00 00 00 F6 C0 
33343868,89,03 10 07 CF 00 05 0A 00 00 00 00 00 00 00 00 08 50 2F A9 
33381160,90,03 10 07 CF 00 05 30 A3 
33822480,91,04 03 08 33 00 16 36 3E 
33944320,92,04 03 2C 01 08 00 00 00 00 00 00 00 6E 00 91 01 A3 00 00 00 00 00 13 00 00 00 4C 00 00 00 00 09 00 00 14 58 21 00 00 00 00 00 02 00 00 00 00 22 64 
34346908,93,04 10 07 CF 00 05 0A 00 00 00 00 00 00 00 00 08 50 9D 98 
34383944,94,04 10 07 CF 00 05 31 14 
34927320,95,01 03 0B B9 00 15 57 C4 01 03 2A 00 00 00 00 00 00 00 00 00 00 00 00 00 00 00 00 00 00 00 00 00 00 00 00 00 0A 03 06 00 00 00 04 00 19 00 0A 00 17 00 0F 00 1E 12 21 
35327040,96,02 03 0B B9 00 15 57 F7 
36205292,97,00 10 07 D1 00 5A B4 57 46 32 33 31 32 32 37 30 37 30 36 00 00 00 00 04 04 07 D1 00 00 00 01 01 5E 00 00 00 0A 03 05 00 09 00 09 00 00 00 00 00 00 00 A5 00 CE 00 D2 00 00 00 CB 00 CD FF E5 00 00 00 00 00 D0 FF E4 00 00 00 00 00 00 00 00 00 00 00 00 00 00 00 00 00 00 00 00 00 D2 00 D1 00 00 00 00 00 D0 00 D0 00 00 00 00 00 00 00 00 00 00 00 00 00 00 00 00 00 00 00 00 00 CC 00 00 00 00 00 00 00 CB 00 00 00 00 00 00 00 00 00 00 00 00 00 00 00 00 00 00 00 00 00 00 00 FA 00 FA 00 00 00 00 00 00 00 00 00 00 00 00 00 00 00 00 00 00 00 00 00 49 00 48 00 00 00 A5 89 53 
36706792,98,00 10 08 2B 00 5A B4 57 46 32 33 31 32 32 37 30 37 30 36 00 00 00 00 04 04 08 2B 00 00 00 00 FF E3 FF E5 00 00 00 00 5A A5 00 00 00 00 00 00 00 C7 00 00 00 C6 00 00 00 00 00 00 00 00 00 00 00 00 00 00 00 00 00 00 00 00 00 00 00 00 00 00 00 00 00 00 00 17 00 13 01 08 00 00 00 00 00 00 00 00 00 00 00 15 00 13 01 08 00 00 00 00 00 00 00 00 00 F8 01 4C 00 00 00 00 00 00 00 00 00 00 00 00 00 00 00 00 00 10 00 00 00 00 00 00 00 00 00 00 00 00 00 00 00 00 00 00 00 00 00 00 00 00 66 00 00 00 00 00 00 00 00 00 00 00 00 00 00 00 00 00 00 00 00 00 00 00 00 00 00 00 E7 D6 
36831604,99,05 03 03 F3 00 0E 35 FD 
36934604,100,05 03 1C 00 00 00 00 00 00 00 00 00 10 00 00 00 00 00 00 00 00 00 00 5A A5 00 F8 00 ED 01 4C 98 69 
37333128,101,06 03 03 F3 00 0E 35 CE 
37834644,102,03 03 08 33 00 16 37 89 
37957268,103,03 03 2C 01 08 00 00 00 00 00 00 00 6E 00 91 01 A4 00 00 00 00 00 13 00 00 00 4E 00 00 00 00 09 00 00 14 58 21 00 00 00 00 00 02 00 00 00 00 F6 C0 
38359048,104,03 10 07 CF 00 05 0A 00 00 00 00 00 00 00 00 08 50 2F A9 
38395536,105,03 10 07 CF 00 05 30 A3 
38837684,106,04 03 08 33 00 16 36 3E 
38959760,107,04 03 2C 01 08 00 00 00 00 00 00 00 6E 00 91 01 A3 00 00 00 00 00 13 00 00 00 4C 00 00 00 00 09 00 00 14 58 21 00 00 00 00 00 02 00 00 00 00 22 64 
39362088,108,04 10 07 CF 00 05 0A 00 00 00 00 00 00 00 00 08 50 9D 98 
39399356,109,04 10 07 CF 00 05 31 14 
39942604,110,01 03 0B B9 00 15 57 C4 01 03 2A 00 00 00 00 00 00 00 00 00 00 00 00 00 00 00 00 00 00 00 00 00 00 00 00 00 0A 03 06 00 00 00 04 00 19 00 0A 00 17 00 0F 00 1E 12 21 
40342224,111,02 03 0B B9 00 15 57 F7 
41220476,112,00 10 07 D1 00 5A B4 57 46 32 33 31 32 32 37 30 37 30 36 00 00 00 00 04 04 07 D1 00 00 00 01 01 5E 00 00 00 0A 03 05 00 09 00 09 00 00 00 00 00 00 00 A5 00 CE 00 D2 00 00 00 CB 00 CD FF E5 00 00 00 00 00 D0 FF E3 00 00 00 00 00 00 00 00 00 00 00 00 00 00 00 00 00 00 00 00 00 D2 00 D1 00 00 00 00 00 D0 00 D0 00 00 00 00 00 00 00 00 00 00 00 00 00 00 00 00 00 00 00 00 00 CC 00 00 00 00 00 00 00 CB 00 00 00 00 00 00 00 00 00 00 00 00 00 00 00 00 00 00 00 00 00 00 00 FA 00 FA 00 00 00 00 00 00 00 00 00 00 00 00 00 00 00 00 00 00 00 00 00 49 00 48 00 00 00 A5 C3 D8 
41721996,113,00 10 08 2B 00 5A B4 57 46 32 33 31 32 32 37 30 37 30 36 00 00 00 00 04 04 08 2B 00 00 00 00 FF E3 FF E5 00 00 00 00 5A A5 00 00 00 00 00 00 00 C7 00 00 00 C6 00 00 00 00 00 00 00 00 00 00 00 00 00 00 00 00 00 00 00 00 00 00 00 00 00 00 00 00 00 00 00 17 00 13 01 08 00 00 00 00 00 00 00 00 00 00 00 15 00 13 01 08 00 00 00 00 00 00 00 00 00 F8 01 4C 00 00 00 00 00 00 00 00 00 00 00 00 00 00 00 00 00 10 00 00 00 00 00 00 00 00 00 00 00 00 00 00 00 00 00 00 00 00 00 00 00 00 66 00 00 00 00 00 00 00 00 00 00 00 00 00 00 00 00 00 00 00 00 00 00 00 00 00 00 00 E7 D6 
41846784,114,05 03 03 F3 00 0E 35 FD 
41949520,115,05 03 1C 00 00 00 00 00 00 00 00 00 10 00 00 00 00 00 00 00 00 00 00 5A A5 00 F8 00 ED 01 4C 98 69 
42348304,116,06 03 03 F3 00 0E 35 CE 
42849824,117,03 03 08 33 00 16 37 89 
42971616,118,03 03 2C 01 08 00 00 00 00 00 00 00 6E 00 91 01 A4 00 00 00 00 00 13 00 00 00 4E 00 00 00 00 09 00 00 14 58 21 00 00 00 00 00 02 00 00 00 00 F6 C0 
43374252,119,03 10 07 CF 00 05 0A 00 00 00 00 00 00 00 00 08 50 2F A9 
43410924,120,03 10 07 CF 00 05 30 A3 
43852868,121,04 03 08 33 00 16 36 3E 
43975152,122,04 03 2C 01 08 00 00 00 00 00 00 00 6E 00 91 01 A3 00 00 00 00 00 13 00 00 00 4C 00 00 00 00 09 00 00 14 58 21 00 00 00 00 00 02 00 00 00 00 22 64 
44377296,123,04 10 07 CF 00 05 0A 00 00 00 00 00 00 00 00 08 50 9D 98 
44413732,124,04 10 07 CF 00 05 31 14 
44855908,125,01 03 0B B9 00 15 57 C4 
45014144,126,01 03 2A 00 00 00 00 00 00 00 00 00 00 00 00 00 00 00 00 00 00 00 00 00 00 00 00 00 0A 03 06 00 00 00 04 00 19 00 0A 00 17 00 0F 00 1E 12 21 
45357428,127,02 03 0B B9 00 15 57 F7 
46235688,128,00 10 07 D1 00 5A B4 57 46 32 33 31 32 32 37 30 37 30 36 00 00 00 00 04 04 07 D1 00 00 00 01 01 5E 00 00 00 0A 03 05 00 09 00 09 00 00 00 00 00 00 00 A5 00 CE 00 D2 00 00 00 CC 00 CD FF E5 00 00 00 00 00 D0 FF E3 00 00 00 00 00 00 00 00 00 00 00 00 00 00 00 00 00 00 00 00 00 D2 00 D1 00 00 00 00 00 D0 00 D0 00 00 00 00 00 00 00 00 00 00 00 00 00 00 00 00 00 00 00 00 00 CC 00 00 00 00 00 00 00 CB 00 00 00 00 00 00 00 00 00 00 00 00 00 00 00 00 00 00 00 00 00 00 00 FA 00 FA 00 00 00 00 00 00 00 00 00 00 00 00 00 00 00 00 00 00 00 00 00 49 00 48 00 00 00 A5 56 19 
46737176,129,00 10 08 2B 00 5A B4 57 46 32 33 31 32 32 37 30 37 30 36 00 00 00 00 04 04 08 2B 00 00 00 00 FF E3 FF E5 00 00 00 00 5A A5 00 00 00 00 00 00 00 C7 00 00 00 C6 00 00 00 00 00 00 00 00 00 00 00 00 00 00 00 00 00 00 00 00 00 00 00 00 00 00 00 00 00 00 00 17 00 13 01 08 00 00 00 00 00 00 00 00 00 00 00 15 00 13 01 08 00 00 00 00 00 00 00 00 00 F8 01 4C 00 00 00 00 00 00 00 00 00 00 00 00 00 00 00 00 00 10 00 00 00 00 00 00 00 00 00 00 00 00 00 00 00 00 00 00 00 00 00 00 00 00 66 00 00 00 00 00 00 00 00 00 00 00 00 00 00 00 00 00 00 00 00 00 00 00 00 00 00 00 E7 D6 
46861992,130,05 03 03 F3 00 0E 35 FD 
46964652,131,05 03 1C 00 00 00 00 00 00 00 00 00 10 00 00 00 00 00 00 00 00 00 00 5A A5 00 F8 00 ED 01 4C 98 69 
47363484,132,06 03 03 F3 00 0E 35 CE 
47865032,133,03 03 08 33 00 16 37 89 
47987028,134,03 03 2C 01 08 00 00 00 00 00 00 00 6E 00 91 01 A4 00 00 00 00 00 13 00 00 00 4E 00 00 00 00 09 00 00 14 58 21 00 00 00 00 00 02 00 00 00 00 F6 C0 
48389436,135,03 10 07 CF 00 05 0A 00 00 00 00 00 00 00 00 08 50 2F A9 
48426368,136,03 10 07 CF 00 05 30 A3 
48868072,137,04 03 08 33 00 16 36 3E 
48990384,138,04 03 2C 01 08 00 00 00 00 00 00 00 6E 00 91 01 A4 00 00 00 00 00 13 00 00 00 4C 00 00 00 00 09 00 00 14 58 21 00 00 00 00 00 02 00 00 00 00 D3 A7 
49392476,139,04 10 07 CF 00 05 0A 00 00 00 00 00 00 00 00 08 50 9D 98 
49429148,140,04 10 07 CF 00 05 31 14 
49871088,141,01 03 0B B9 00 15 57 C4 
50372636,142,02 03 0B B9 00 15 57 F7 
51250864,143,00 10 07 D1 00 5A B4 57 46 32 33 31 32 32 37 30 37 30 36 00 00 00 00 04 04 07 D1 00 00 00 01 01 5E 00 00 00 0A 03 05 00 09 00 09 00 00 00 00 00 00 00 A5 00 CE 00 D2 00 00 00 CC 00 CD FF E5 00 00 00 00 00 D0 FF E3 00 00 00 00 00 00 00 00 00 00 00 00 00 00 00 00 00 00 00 00 00 D2 00 D1 00 00 00 00 00 D0 00 D0 00 00 00 00 00 00 00 00 00 00 00 00 00 00 00 00 00 00 00 00 00 CC 00 00 00 00 00 00 00 CB 00 00 00 00 00 00 00 00 00 00 00 00 00 00 00 00 00 00 00 00 00 00 00 FA 00 FA 00 00 00 00 00 00 00 00 00 00 00 00 00 00 00 00 00 00 00 00 00 49 00 48 00 00 00 A5 56 19 
51741984,144,00 10 08 2B 00 5A B4 57 46 32 33 31 32 32 37 30 37 30 36 00 00 00 00 04 04 08 2B 00 00 00 00 FF E3 FF E5 00 00 00 00 5A A5 00 00 00 00 00 00 00 C7 00 00 00 C6 00 00 00 00 00 00 00 00 00 00 00 00 00 00 00 00 00 00 00 00 00 00 00 00 00 00 00 00 00 00 00 17 00 13 01 08 00 00 00 00 00 00 00 00 00 00 00 15 00 13 01 08 00 00 00 00 00 00 00 00 00 F8 01 4C 00 00 00 00 00 00 00 00 00 00 00 00 00 00 00 00 00 10 00 00 00 00 00 00 00 00 00 00 00 00 00 00 00 00 00 00 00 00 00 00 00 00 66 00 00 00 00 00 00 00 00 00 00 00 00 00 00 00 00 00 00 00 00 00 00 00 F0 
51795224,145,9D D6 
